Time [s], Analyzer Name, Decoded Protocol Result
0.639210625000000,LIN,Header Break
0.639912625000000,LIN,Inter-Byte Space
0.639989000000000,LIN,Header Sync
0.640483000000000,LIN,Inter-Byte Space
0.640560000000000,LIN,Protected ID: 60
0.641054000000000,LIN,Inter-Byte Space
0.641390250000000,LIN,Data 0: 255
0.641884250000000,LIN,Inter-Byte Space
0.641909250000000,LIN,Data 1: 7
0.642403250000000,LIN,Inter-Byte Space
0.642428125000000,LIN,Data 2: 255
0.642922125000000,LIN,Inter-Byte Space
0.642947125000000,LIN,Data 3: 255
0.643441125000000,LIN,Inter-Byte Space
0.643466000000000,LIN,Data 4: 255
0.643960000000000,LIN,Inter-Byte Space
0.643985000000000,LIN,Data 5: 255
0.644479000000000,LIN,Inter-Byte Space
0.644503875000000,LIN,Data 6: 255
0.644997875000000,LIN,Inter-Byte Space
0.645022875000000,LIN,Data 7: 255
0.645516875000000,LIN,Inter-Byte Space
0.645542000000000,LIN,!CHK!
0.649175375000000,LIN,Header Break
0.649877375000000,LIN,Inter-Byte Space
0.649953875000000,LIN,Header Sync
0.650447875000000,LIN,Inter-Byte Space
0.650525000000000,LIN,Protected ID: 61
0.664226500000000,LIN,Header Break
0.664898875000000,LIN,Inter-Byte Space
0.665005000000000,LIN,Header Sync
0.665499000000000,LIN,Inter-Byte Space
0.665731500000000,LIN,Protected ID: 60
0.666225500000000,LIN,Inter-Byte Space
0.666613750000000,LIN,Data 0: 255
0.667107750000000,LIN,Inter-Byte Space
0.667132625000000,LIN,Data 1: 7
0.667626625000000,LIN,Inter-Byte Space
0.667651750000000,LIN,Data 2: 255
0.668145750000000,LIN,Inter-Byte Space
0.668170625000000,LIN,Data 3: 255
0.668664625000000,LIN,Inter-Byte Space
0.668689625000000,LIN,Data 4: 255
0.669183625000000,LIN,Inter-Byte Space
0.669208500000000,LIN,Data 5: 255
0.669702500000000,LIN,Inter-Byte Space
0.669727500000000,LIN,Data 6: 255
0.670221500000000,LIN,Inter-Byte Space
0.670246375000000,LIN,Data 7: 255
0.670740375000000,LIN,Inter-Byte Space
0.670765250000000,LIN,!CHK!
0.674138375000000,LIN,Header Break
0.674840375000000,LIN,Inter-Byte Space
0.674916750000000,LIN,Header Sync
0.675410750000000,LIN,Inter-Byte Space
0.675487625000000,LIN,Protected ID: 61
0.689137500000000,LIN,Header Break
0.689809875000000,LIN,Inter-Byte Space
0.689916000000000,LIN,Header Sync
0.690410000000000,LIN,Inter-Byte Space
0.690694500000000,LIN,Protected ID: 60
0.691188500000000,LIN,Inter-Byte Space
0.691524875000000,LIN,Data 0: 255
0.692018875000000,LIN,Inter-Byte Space
0.692044000000000,LIN,Data 1: 1
0.692538000000000,LIN,Inter-Byte Space
0.692563000000000,LIN,Data 2: 7
0.693057000000000,LIN,Inter-Byte Space
0.693082125000000,LIN,Data 3: 255
0.693576125000000,LIN,Inter-Byte Space
0.693601250000000,LIN,Data 4: 255
0.694095250000000,LIN,Inter-Byte Space
0.694120250000000,LIN,Data 5: 255
0.694614250000000,LIN,Inter-Byte Space
0.694639375000000,LIN,Data 6: 255
0.695133375000000,LIN,Inter-Byte Space
0.695158500000000,LIN,Data 7: 255
0.695652500000000,LIN,Inter-Byte Space
0.695677625000000,LIN,!CHK!
0.699103000000000,LIN,Header Break
0.699805000000000,LIN,Inter-Byte Space
0.699881375000000,LIN,Header Sync
0.700375375000000,LIN,Inter-Byte Space
0.700400375000000,LIN,Protected ID: 61
0.714103750000000,LIN,Header Break
0.714776125000000,LIN,Inter-Byte Space
0.714882250000000,LIN,Header Sync
0.715376250000000,LIN,Inter-Byte Space
0.715609000000000,LIN,Protected ID: 60
0.716103000000000,LIN,Inter-Byte Space
0.716491250000000,LIN,Data 0: 208
0.716985250000000,LIN,Inter-Byte Space
0.717010375000000,LIN,Data 1: 2
0.717504375000000,LIN,Inter-Byte Space
0.717529500000000,LIN,Data 2: 7
0.718023500000000,LIN,Inter-Byte Space
0.718048625000000,LIN,Data 3: 255
0.718542625000000,LIN,Inter-Byte Space
0.718567625000000,LIN,Data 4: 255
0.719061625000000,LIN,Inter-Byte Space
0.719086625000000,LIN,Data 5: 255
0.719580625000000,LIN,Inter-Byte Space
0.719605625000000,LIN,Data 6: 255
0.720099625000000,LIN,Inter-Byte Space
0.720124625000000,LIN,Data 7: 255
0.720618625000000,LIN,Inter-Byte Space
0.720643750000000,LIN,!CHK!
0.724069375000000,LIN,Header Break
0.724771375000000,LIN,Inter-Byte Space
0.724848000000000,LIN,Header Sync
0.725342000000000,LIN,Inter-Byte Space
0.725626500000000,LIN,Protected ID: 61
0.726120500000000,LIN,Inter-Byte Space
0.726357250000000,LIN,Data 0: 254
0.739069875000000,LIN,Header Break
0.739742375000000,LIN,Inter-Byte Space
0.739848375000000,LIN,Header Sync
0.740342375000000,LIN,Inter-Byte Space
0.740575125000000,LIN,Protected ID: 60
0.741069125000000,LIN,Inter-Byte Space
0.741457500000000,LIN,Data 0: 0
0.741951500000000,LIN,Inter-Byte Space
0.741976500000000,LIN,Data 1: 2
0.742470500000000,LIN,Inter-Byte Space
0.742495625000000,LIN,Data 2: 7
0.742989625000000,LIN,Inter-Byte Space
0.743014625000000,LIN,Data 3: 255
0.743508625000000,LIN,Inter-Byte Space
0.743533625000000,LIN,Data 4: 255
0.744027625000000,LIN,Inter-Byte Space
0.744052750000000,LIN,Data 5: 255
0.744546750000000,LIN,Inter-Byte Space
0.744571875000000,LIN,Data 6: 255
0.745065875000000,LIN,Inter-Byte Space
0.745091000000000,LIN,Data 7: 255
0.745585000000000,LIN,Inter-Byte Space
0.745610125000000,LIN,!CHK!
0.748983375000000,LIN,Header Break
0.749685375000000,LIN,Inter-Byte Space
0.749761750000000,LIN,Header Sync
0.750255750000000,LIN,Inter-Byte Space
0.750332625000000,LIN,Protected ID: 61
0.764034750000000,LIN,Header Break
0.764707250000000,LIN,Inter-Byte Space
0.764813375000000,LIN,Header Sync
0.765307375000000,LIN,Inter-Byte Space
0.765540000000000,LIN,Protected ID: 60
0.766034000000000,LIN,Inter-Byte Space
0.766422500000000,LIN,Data 0: 1
0.766916500000000,LIN,Inter-Byte Space
0.766941500000000,LIN,Data 1: 2
0.767435500000000,LIN,Inter-Byte Space
0.767460625000000,LIN,Data 2: 7
0.767954625000000,LIN,Inter-Byte Space
0.767979625000000,LIN,Data 3: 255
0.768473625000000,LIN,Inter-Byte Space
0.768498750000000,LIN,Data 4: 255
0.768992750000000,LIN,Inter-Byte Space
0.769017750000000,LIN,Data 5: 255
0.769511750000000,LIN,Inter-Byte Space
0.769536875000000,LIN,Data 6: 255
0.770030875000000,LIN,Inter-Byte Space
0.770055875000000,LIN,Data 7: 255
0.770549875000000,LIN,Inter-Byte Space
0.770575000000000,LIN,!CHK!
0.773949500000000,LIN,Header Break
0.774651500000000,LIN,Inter-Byte Space
0.774728125000000,LIN,Header Sync
0.775222125000000,LIN,Inter-Byte Space
0.775299125000000,LIN,Protected ID: 61
0.788952000000000,LIN,Header Break
0.789624625000000,LIN,Inter-Byte Space
0.789730625000000,LIN,Header Sync
0.790224625000000,LIN,Inter-Byte Space
0.790509375000000,LIN,Protected ID: 60
0.791003375000000,LIN,Inter-Byte Space
0.791339875000000,LIN,Data 0: 2
0.791833875000000,LIN,Inter-Byte Space
0.791859000000000,LIN,Data 1: 2
0.792353000000000,LIN,Inter-Byte Space
0.792378125000000,LIN,Data 2: 7
0.792872125000000,LIN,Inter-Byte Space
0.792897250000000,LIN,Data 3: 255
0.793391250000000,LIN,Inter-Byte Space
0.793416250000000,LIN,Data 4: 255
0.793910250000000,LIN,Inter-Byte Space
0.793935500000000,LIN,Data 5: 255
0.794429500000000,LIN,Inter-Byte Space
0.794454625000000,LIN,Data 6: 255
0.794948625000000,LIN,Inter-Byte Space
0.794973750000000,LIN,Data 7: 255
0.795467750000000,LIN,Inter-Byte Space
0.795493000000000,LIN,!CHK!
0.798919375000000,LIN,Header Break
0.799621375000000,LIN,Inter-Byte Space
0.799698000000000,LIN,Header Sync
0.800192000000000,LIN,Inter-Byte Space
0.800269000000000,LIN,Protected ID: 61
0.813921125000000,LIN,Header Break
0.814593625000000,LIN,Inter-Byte Space
0.814699750000000,LIN,Header Sync
0.815193750000000,LIN,Inter-Byte Space
0.815478250000000,LIN,Protected ID: 60
0.815972250000000,LIN,Inter-Byte Space
0.816308625000000,LIN,Data 0: 3
0.816802625000000,LIN,Inter-Byte Space
0.816827625000000,LIN,Data 1: 2
0.817321625000000,LIN,Inter-Byte Space
0.817346625000000,LIN,Data 2: 7
0.817840625000000,LIN,Inter-Byte Space
0.817865625000000,LIN,Data 3: 255
0.818359625000000,LIN,Inter-Byte Space
0.818384500000000,LIN,Data 4: 255
0.818878500000000,LIN,Inter-Byte Space
0.818903500000000,LIN,Data 5: 255
0.819397500000000,LIN,Inter-Byte Space
0.819422500000000,LIN,Data 6: 255
0.819916500000000,LIN,Inter-Byte Space
0.819941375000000,LIN,Data 7: 255
0.820435375000000,LIN,Inter-Byte Space
0.820460375000000,LIN,!CHK!
0.823885375000000,LIN,Header Break
0.824587375000000,LIN,Inter-Byte Space
0.824664000000000,LIN,Header Sync
0.825158000000000,LIN,Inter-Byte Space
0.825442625000000,LIN,Protected ID: 61
0.825936625000000,LIN,Inter-Byte Space
0.826134250000000,LIN,Data 0: 255
0.826628250000000,LIN,Inter-Byte Space
0.826704750000000,LIN,Data 1: 0
0.827198750000000,LIN,Inter-Byte Space
0.827275125000000,LIN,Data 2: 0
0.827769125000000,LIN,Inter-Byte Space
0.827845500000000,LIN,Data 3: 0
0.828339500000000,LIN,Inter-Byte Space
0.828415875000000,LIN,Data 4: 255
0.828909875000000,LIN,Inter-Byte Space
0.828986250000000,LIN,Data 5: 255
0.829480250000000,LIN,Inter-Byte Space
0.829556750000000,LIN,Data 6: 255
0.830050750000000,LIN,Inter-Byte Space
0.830127125000000,LIN,Data 7: 255
0.830621125000000,LIN,Inter-Byte Space
0.830697625000000,LIN,!CHK!
0.838885625000000,LIN,Header Break
0.839587625000000,LIN,Inter-Byte Space
0.839664125000000,LIN,Header Sync
0.840158125000000,LIN,Inter-Byte Space
0.840390625000000,LIN,Protected ID: 60
0.840884625000000,LIN,Inter-Byte Space
0.841272750000000,LIN,Data 0: 3
0.841766750000000,LIN,Inter-Byte Space
0.841791750000000,LIN,Data 1: 6
0.842285750000000,LIN,Inter-Byte Space
0.842310750000000,LIN,Data 2: 9
0.842804750000000,LIN,Inter-Byte Space
0.842829625000000,LIN,Data 3: 0
0.843323625000000,LIN,Inter-Byte Space
0.843348625000000,LIN,Data 4: 255
0.843842625000000,LIN,Inter-Byte Space
0.843867500000000,LIN,Data 5: 255
0.844361500000000,LIN,Inter-Byte Space
0.844386500000000,LIN,Data 6: 255
0.844880500000000,LIN,Inter-Byte Space
0.844905500000000,LIN,Data 7: 255
0.845399500000000,LIN,Inter-Byte Space
0.845424500000000,LIN,!CHK!
0.848797875000000,LIN,Header Break
0.849499875000000,LIN,Inter-Byte Space
0.849576250000000,LIN,Header Sync
0.850070250000000,LIN,Inter-Byte Space
0.850147125000000,LIN,Protected ID: 61
0.850641125000000,LIN,Inter-Byte Space
0.850839250000000,LIN,Data 0: 9
0.851333250000000,LIN,Inter-Byte Space
0.851409750000000,LIN,Data 1: 1
0.851903750000000,LIN,Inter-Byte Space
0.851980250000000,LIN,Data 2: 255
0.852474250000000,LIN,Inter-Byte Space
0.852550750000000,LIN,Data 3: 255
0.853044750000000,LIN,Inter-Byte Space
0.853121125000000,LIN,Data 4: 255
0.853615125000000,LIN,Inter-Byte Space
0.853691625000000,LIN,Data 5: 255
0.854185625000000,LIN,Inter-Byte Space
0.854262000000000,LIN,Data 6: 255
0.854756000000000,LIN,Inter-Byte Space
0.854832500000000,LIN,Data 7: 255
0.855326500000000,LIN,Inter-Byte Space
0.855403000000000,LIN,!CHK!
0.863848500000000,LIN,Header Break
0.864550500000000,LIN,Inter-Byte Space
0.864627000000000,LIN,Header Sync
0.865121000000000,LIN,Inter-Byte Space
0.865353500000000,LIN,Protected ID: 60
0.865847500000000,LIN,Inter-Byte Space
0.866235875000000,LIN,Data 0: 3
0.866729875000000,LIN,Inter-Byte Space
0.866754875000000,LIN,Data 1: 6
0.867248875000000,LIN,Inter-Byte Space
0.867273875000000,LIN,Data 2: 12
0.867767875000000,LIN,Inter-Byte Space
0.867793000000000,LIN,Data 3: 0
0.868287000000000,LIN,Inter-Byte Space
0.868312000000000,LIN,Data 4: 255
0.868806000000000,LIN,Inter-Byte Space
0.868831000000000,LIN,Data 5: 255
0.869325000000000,LIN,Inter-Byte Space
0.869350125000000,LIN,Data 6: 255
0.869844125000000,LIN,Inter-Byte Space
0.869869000000000,LIN,Data 7: 255
0.870363000000000,LIN,Inter-Byte Space
0.870388000000000,LIN,!CHK!
0.873761750000000,LIN,Header Break
0.874463750000000,LIN,Inter-Byte Space
0.874540375000000,LIN,Header Sync
0.875034375000000,LIN,Inter-Byte Space
0.875111250000000,LIN,Protected ID: 61
0.875605250000000,LIN,Inter-Byte Space
0.875803375000000,LIN,Data 0: 12
0.876297375000000,LIN,Inter-Byte Space
0.876373875000000,LIN,Data 1: 26
0.876867875000000,LIN,Inter-Byte Space
0.876944250000000,LIN,Data 2: 255
0.877438250000000,LIN,Inter-Byte Space
0.877514750000000,LIN,Data 3: 255
0.878008750000000,LIN,Inter-Byte Space
0.878085125000000,LIN,Data 4: 255
0.878579125000000,LIN,Inter-Byte Space
0.878655500000000,LIN,Data 5: 255
0.879149500000000,LIN,Inter-Byte Space
0.879225875000000,LIN,Data 6: 255
0.879719875000000,LIN,Inter-Byte Space
0.879796375000000,LIN,Data 7: 255
0.880290375000000,LIN,Inter-Byte Space
0.880366750000000,LIN,!CHK!
0.888760625000000,LIN,Header Break
0.889462625000000,LIN,Inter-Byte Space
0.889539000000000,LIN,Header Sync
0.890033000000000,LIN,Inter-Byte Space
0.890317500000000,LIN,Protected ID: 60
0.890811500000000,LIN,Inter-Byte Space
0.891199750000000,LIN,Data 0: 3
0.891693750000000,LIN,Inter-Byte Space
0.891718750000000,LIN,Data 1: 6
0.892212750000000,LIN,Inter-Byte Space
0.892237750000000,LIN,Data 2: 13
0.892731750000000,LIN,Inter-Byte Space
0.892756750000000,LIN,Data 3: 0
0.893250750000000,LIN,Inter-Byte Space
0.893275750000000,LIN,Data 4: 255
0.893769750000000,LIN,Inter-Byte Space
0.893794625000000,LIN,Data 5: 255
0.894288625000000,LIN,Inter-Byte Space
0.894313750000000,LIN,Data 6: 255
0.894807750000000,LIN,Inter-Byte Space
0.894832625000000,LIN,Data 7: 255
0.895326625000000,LIN,Inter-Byte Space
0.895351625000000,LIN,!CHK!
0.898725625000000,LIN,Header Break
0.899427625000000,LIN,Inter-Byte Space
0.899504125000000,LIN,Header Sync
0.899998125000000,LIN,Inter-Byte Space
0.900075000000000,LIN,Protected ID: 61
0.900569000000000,LIN,Inter-Byte Space
0.900767125000000,LIN,Data 0: 13
0.901261125000000,LIN,Inter-Byte Space
0.901337625000000,LIN,Data 1: 198
0.901831625000000,LIN,Inter-Byte Space
0.901908000000000,LIN,Data 2: 255
0.902402000000000,LIN,Inter-Byte Space
0.902478500000000,LIN,Data 3: 255
0.902972500000000,LIN,Inter-Byte Space
0.903049000000000,LIN,Data 4: 255
0.903543000000000,LIN,Inter-Byte Space
0.903619500000000,LIN,Data 5: 255
0.904113500000000,LIN,Inter-Byte Space
0.904190000000000,LIN,Data 6: 255
0.904684000000000,LIN,Inter-Byte Space
0.904760500000000,LIN,Data 7: 255
0.905254500000000,LIN,Inter-Byte Space
0.905331125000000,LIN,!CHK!
0.913726625000000,LIN,Header Break
0.914428625000000,LIN,Inter-Byte Space
0.914505250000000,LIN,Header Sync
0.914999250000000,LIN,Inter-Byte Space
0.915283875000000,LIN,Protected ID: 60
0.915777875000000,LIN,Inter-Byte Space
0.916114375000000,LIN,Data 0: 3
0.916608375000000,LIN,Inter-Byte Space
0.916633500000000,LIN,Data 1: 6
0.917127500000000,LIN,Inter-Byte Space
0.917152625000000,LIN,Data 2: 10
0.917646625000000,LIN,Inter-Byte Space
0.917671625000000,LIN,Data 3: 0
0.918165625000000,LIN,Inter-Byte Space
0.918190750000000,LIN,Data 4: 255
0.918684750000000,LIN,Inter-Byte Space
0.918709875000000,LIN,Data 5: 255
0.919203875000000,LIN,Inter-Byte Space
0.919229000000000,LIN,Data 6: 255
0.919723000000000,LIN,Inter-Byte Space
0.919748000000000,LIN,Data 7: 255
0.920242000000000,LIN,Inter-Byte Space
0.920267000000000,LIN,!CHK!
0.923692375000000,LIN,Header Break
0.924394375000000,LIN,Inter-Byte Space
0.924470750000000,LIN,Header Sync
0.924964750000000,LIN,Inter-Byte Space
0.925249375000000,LIN,Protected ID: 61
0.925743375000000,LIN,Inter-Byte Space
0.926044875000000,LIN,Data 0: 10
0.926538875000000,LIN,Inter-Byte Space
0.926615375000000,LIN,Data 1: 0
0.927109375000000,LIN,Inter-Byte Space
0.927186000000000,LIN,Data 2: 255
0.927680000000000,LIN,Inter-Byte Space
0.927756500000000,LIN,Data 3: 255
0.928250500000000,LIN,Inter-Byte Space
0.928327000000000,LIN,Data 4: 255
0.928821000000000,LIN,Inter-Byte Space
0.928897500000000,LIN,Data 5: 255
0.929391500000000,LIN,Inter-Byte Space
0.929468000000000,LIN,Data 6: 255
0.929962000000000,LIN,Inter-Byte Space
0.930038500000000,LIN,Data 7: 255
0.930532500000000,LIN,Inter-Byte Space
0.930609000000000,LIN,!CHK!
0.938692500000000,LIN,Header Break
0.939394500000000,LIN,Inter-Byte Space
0.939471000000000,LIN,Header Sync
0.939965000000000,LIN,Inter-Byte Space
0.940197500000000,LIN,Protected ID: 60
0.940691500000000,LIN,Inter-Byte Space
0.941079750000000,LIN,Data 0: 3
0.941573750000000,LIN,Inter-Byte Space
0.941598750000000,LIN,Data 1: 6
0.942092750000000,LIN,Inter-Byte Space
0.942117750000000,LIN,Data 2: 11
0.942611750000000,LIN,Inter-Byte Space
0.942636750000000,LIN,Data 3: 0
0.943130750000000,LIN,Inter-Byte Space
0.943155750000000,LIN,Data 4: 255
0.943649750000000,LIN,Inter-Byte Space
0.943674750000000,LIN,Data 5: 255
0.944168750000000,LIN,Inter-Byte Space
0.944193875000000,LIN,Data 6: 255
0.944687875000000,LIN,Inter-Byte Space
0.944712875000000,LIN,Data 7: 255
0.945206875000000,LIN,Inter-Byte Space
0.945231875000000,LIN,!CHK!
0.948657500000000,LIN,Header Break
0.949359500000000,LIN,Inter-Byte Space
0.949435875000000,LIN,Header Sync
0.949929875000000,LIN,Inter-Byte Space
0.950214500000000,LIN,Protected ID: 61
0.950708500000000,LIN,Inter-Byte Space
0.950906250000000,LIN,Data 0: 11
0.951400250000000,LIN,Inter-Byte Space
0.951476750000000,LIN,Data 1: 95
0.951970750000000,LIN,Inter-Byte Space
0.952047250000000,LIN,Data 2: 255
0.952541250000000,LIN,Inter-Byte Space
0.952617875000000,LIN,Data 3: 255
0.953111875000000,LIN,Inter-Byte Space
0.953188375000000,LIN,Data 4: 255
0.953682375000000,LIN,Inter-Byte Space
0.953758875000000,LIN,Data 5: 255
0.954252875000000,LIN,Inter-Byte Space
0.954329375000000,LIN,Data 6: 255
0.954823375000000,LIN,Inter-Byte Space
0.954899875000000,LIN,Data 7: 255
0.955393875000000,LIN,Inter-Byte Space
0.955470375000000,LIN,!CHK!
0.963654875000000,LIN,Header Break
0.964356875000000,LIN,Inter-Byte Space
0.964433375000000,LIN,Header Sync
0.964927375000000,LIN,Inter-Byte Space
0.965160000000000,LIN,Protected ID: 60
0.965654000000000,LIN,Inter-Byte Space
0.966042250000000,LIN,Data 0: 3
0.966536250000000,LIN,Inter-Byte Space
0.966561375000000,LIN,Data 1: 4
0.967055375000000,LIN,Inter-Byte Space
0.967080500000000,LIN,Data 2: 0
0.967574500000000,LIN,Inter-Byte Space
0.967599500000000,LIN,Data 3: 0
0.968093500000000,LIN,Inter-Byte Space
0.968118625000000,LIN,Data 4: 255
0.968612625000000,LIN,Inter-Byte Space
0.968637625000000,LIN,Data 5: 255
0.969131625000000,LIN,Inter-Byte Space
0.969156750000000,LIN,Data 6: 255
0.969650750000000,LIN,Inter-Byte Space
0.969675750000000,LIN,Data 7: 255
0.970169750000000,LIN,Inter-Byte Space
0.970194875000000,LIN,!CHK!
0.973568625000000,LIN,Header Break
0.974270625000000,LIN,Inter-Byte Space
0.974347125000000,LIN,Header Sync
0.974841125000000,LIN,Inter-Byte Space
0.974918125000000,LIN,Protected ID: 61
0.975412125000000,LIN,Inter-Byte Space
0.975921500000000,LIN,Data 0: 255
0.976415500000000,LIN,Inter-Byte Space
0.976491875000000,LIN,Data 1: 0
0.976985875000000,LIN,Inter-Byte Space
0.977062375000000,LIN,Data 2: 0
0.977556375000000,LIN,Inter-Byte Space
0.977632875000000,LIN,Data 3: 0
0.978126875000000,LIN,Inter-Byte Space
0.978203250000000,LIN,Data 4: 0
0.978697250000000,LIN,Inter-Byte Space
0.978773625000000,LIN,Data 5: 255
0.979267625000000,LIN,Inter-Byte Space
0.979344125000000,LIN,Data 6: 255
0.979838125000000,LIN,Inter-Byte Space
0.979914625000000,LIN,Data 7: 255
0.980408625000000,LIN,Inter-Byte Space
0.980485000000000,LIN,!CHK!
0.988618125000000,LIN,Header Break
0.989320125000000,LIN,Inter-Byte Space
0.989396500000000,LIN,Header Sync
0.989890500000000,LIN,Inter-Byte Space
0.990122875000000,LIN,Protected ID: 60
0.990616875000000,LIN,Inter-Byte Space
0.991005000000000,LIN,Data 0: 4
0.991499000000000,LIN,Inter-Byte Space
0.991523875000000,LIN,Data 1: 2
0.992017875000000,LIN,Inter-Byte Space
0.992042875000000,LIN,Data 2: 0
0.992536875000000,LIN,Inter-Byte Space
0.992561875000000,LIN,Data 3: 0
0.993055875000000,LIN,Inter-Byte Space
0.993080875000000,LIN,Data 4: 255
0.993574875000000,LIN,Inter-Byte Space
0.993599875000000,LIN,Data 5: 255
0.994093875000000,LIN,Inter-Byte Space
0.994118875000000,LIN,Data 6: 255
0.994612875000000,LIN,Inter-Byte Space
0.994637750000000,LIN,Data 7: 255
0.995131750000000,LIN,Inter-Byte Space
0.995156750000000,LIN,!CHK!
0.998529875000000,LIN,Header Break
0.999231875000000,LIN,Inter-Byte Space
0.999308375000000,LIN,Header Sync
0.999802375000000,LIN,Inter-Byte Space
0.999879250000000,LIN,Protected ID: 61
1.013528000000000,LIN,Header Break
1.014200375000000,LIN,Inter-Byte Space
