Time [s], Analyzer Name, Decoded Protocol Result
1.707470750000000,LIN,Header Break
1.708328750000000,LIN,Inter-Byte Space
1.708414750000000,LIN,Header Sync
1.708908750000000,LIN,Inter-Byte Space
1.708934375000000,LIN,Protected ID: 60
1.709428375000000,LIN,Inter-Byte Space
1.709453875000000,LIN,Data 0: 255
1.709947875000000,LIN,Inter-Byte Space
1.709973375000000,LIN,Data 1: 7
1.710467375000000,LIN,Inter-Byte Space
1.710492875000000,LIN,Data 2: 255
1.710986875000000,LIN,Inter-Byte Space
1.711012375000000,LIN,Data 3: 255
1.711506375000000,LIN,Inter-Byte Space
1.711531875000000,LIN,Data 4: 255
1.712025875000000,LIN,Inter-Byte Space
1.712051375000000,LIN,Data 5: 255
1.712545375000000,LIN,Inter-Byte Space
1.712571000000000,LIN,Data 6: 255
1.713065000000000,LIN,Inter-Byte Space
1.713090500000000,LIN,Data 7: 255
1.713584500000000,LIN,Inter-Byte Space
1.713610000000000,LIN,Checksum: 188
1.717155000000000,LIN,Header Break
1.718013000000000,LIN,Inter-Byte Space
1.718093625000000,LIN,Header Sync
1.718587625000000,LIN,Inter-Byte Space
1.718613125000000,LIN,Protected ID: 61
1.731118500000000,LIN,Header Break
1.731947000000000,LIN,Inter-Byte Space
1.732057125000000,LIN,Header Sync
1.732551125000000,LIN,Inter-Byte Space
1.732576625000000,LIN,Protected ID: 60
1.733070625000000,LIN,Inter-Byte Space
1.733096125000000,LIN,Data 0: 255
1.733590125000000,LIN,Inter-Byte Space
1.733615750000000,LIN,Data 1: 7
1.734109750000000,LIN,Inter-Byte Space
1.734135250000000,LIN,Data 2: 255
1.734629250000000,LIN,Inter-Byte Space
1.734654750000000,LIN,Data 3: 255
1.735148750000000,LIN,Inter-Byte Space
1.735174250000000,LIN,Data 4: 255
1.735668250000000,LIN,Inter-Byte Space
1.735693750000000,LIN,Data 5: 255
1.736187750000000,LIN,Inter-Byte Space
1.736213250000000,LIN,Data 6: 255
1.736707250000000,LIN,Inter-Byte Space
1.736732875000000,LIN,Data 7: 255
1.737226875000000,LIN,Inter-Byte Space
1.737252375000000,LIN,Checksum: 188
1.740793375000000,LIN,Header Break
1.741651375000000,LIN,Inter-Byte Space
1.741732000000000,LIN,Header Sync
1.742226000000000,LIN,Inter-Byte Space
1.742251500000000,LIN,Protected ID: 61
1.754756625000000,LIN,Header Break
1.755585125000000,LIN,Inter-Byte Space
1.755695250000000,LIN,Header Sync
1.756189250000000,LIN,Inter-Byte Space
1.756214750000000,LIN,Protected ID: 60
1.756708750000000,LIN,Inter-Byte Space
1.756734250000000,LIN,Data 0: 255
1.757228250000000,LIN,Inter-Byte Space
1.757253875000000,LIN,Data 1: 1
1.757747875000000,LIN,Inter-Byte Space
1.757773375000000,LIN,Data 2: 7
1.758267375000000,LIN,Inter-Byte Space
1.758292875000000,LIN,Data 3: 255
1.758786875000000,LIN,Inter-Byte Space
1.758812375000000,LIN,Data 4: 255
1.759306375000000,LIN,Inter-Byte Space
1.759331875000000,LIN,Data 5: 255
1.759825875000000,LIN,Inter-Byte Space
1.759851375000000,LIN,Data 6: 255
1.760345375000000,LIN,Inter-Byte Space
1.760370875000000,LIN,Data 7: 255
1.760864875000000,LIN,Inter-Byte Space
1.760890375000000,LIN,Checksum: 187
1.764431750000000,LIN,Header Break
1.765289750000000,LIN,Inter-Byte Space
1.765370375000000,LIN,Header Sync
1.765864375000000,LIN,Inter-Byte Space
1.765889875000000,LIN,Protected ID: 61
1.778394625000000,LIN,Header Break
1.779223250000000,LIN,Inter-Byte Space
1.779333250000000,LIN,Header Sync
1.779827250000000,LIN,Inter-Byte Space
1.779852875000000,LIN,Protected ID: 60
1.780346875000000,LIN,Inter-Byte Space
1.780372375000000,LIN,Data 0: 208
1.780866375000000,LIN,Inter-Byte Space
1.780891875000000,LIN,Data 1: 2
1.781385875000000,LIN,Inter-Byte Space
1.781411375000000,LIN,Data 2: 7
1.781905375000000,LIN,Inter-Byte Space
1.781930875000000,LIN,Data 3: 255
1.782424875000000,LIN,Inter-Byte Space
1.782450375000000,LIN,Data 4: 255
1.782944375000000,LIN,Inter-Byte Space
1.782969875000000,LIN,Data 5: 255
1.783463875000000,LIN,Inter-Byte Space
1.783489500000000,LIN,Data 6: 255
1.783983500000000,LIN,Inter-Byte Space
1.784009000000000,LIN,Data 7: 255
1.784503000000000,LIN,Inter-Byte Space
1.784528500000000,LIN,Checksum: 233
1.788076625000000,LIN,Header Break
1.788934625000000,LIN,Inter-Byte Space
1.789009125000000,LIN,Header Sync
1.789503125000000,LIN,Inter-Byte Space
1.789528750000000,LIN,Protected ID: 61
1.790022750000000,LIN,Inter-Byte Space
1.790048250000000,LIN,Data 0: 254
1.790542250000000,LIN,Inter-Byte Space
1.790567750000000,LIN,Checksum: 131
1.794122125000000,LIN,Header Break
1.794950625000000,LIN,Inter-Byte Space
1.795060750000000,LIN,Header Sync
1.795554750000000,LIN,Inter-Byte Space
1.795580250000000,LIN,Protected ID: 60
1.796074250000000,LIN,Inter-Byte Space
1.796099750000000,LIN,Data 0: 0
1.796593750000000,LIN,Inter-Byte Space
1.796619250000000,LIN,Data 1: 2
1.797113250000000,LIN,Inter-Byte Space
1.797138875000000,LIN,Data 2: 7
1.797632875000000,LIN,Inter-Byte Space
1.797658375000000,LIN,Data 3: 255
1.798152375000000,LIN,Inter-Byte Space
1.798177875000000,LIN,Data 4: 255
1.798671875000000,LIN,Inter-Byte Space
1.798697375000000,LIN,Data 5: 255
1.799191375000000,LIN,Inter-Byte Space
1.799216875000000,LIN,Data 6: 255
1.799710875000000,LIN,Inter-Byte Space
1.799736375000000,LIN,Data 7: 255
1.800230375000000,LIN,Inter-Byte Space
1.800255875000000,LIN,Checksum: 186
1.803796875000000,LIN,Header Break
1.804654875000000,LIN,Inter-Byte Space
1.804735625000000,LIN,Header Sync
1.805229625000000,LIN,Inter-Byte Space
1.805255125000000,LIN,Protected ID: 61
1.817759750000000,LIN,Header Break
1.818582250000000,LIN,Inter-Byte Space
1.818692250000000,LIN,Header Sync
1.819186250000000,LIN,Inter-Byte Space
1.819211875000000,LIN,Protected ID: 60
1.819705875000000,LIN,Inter-Byte Space
1.819731375000000,LIN,Data 0: 1
1.820225375000000,LIN,Inter-Byte Space
1.820250875000000,LIN,Data 1: 2
1.820744875000000,LIN,Inter-Byte Space
1.820770375000000,LIN,Data 2: 7
1.821264375000000,LIN,Inter-Byte Space
1.821289875000000,LIN,Data 3: 255
1.821783875000000,LIN,Inter-Byte Space
1.821809375000000,LIN,Data 4: 255
1.822303375000000,LIN,Inter-Byte Space
1.822328875000000,LIN,Data 5: 255
1.822822875000000,LIN,Inter-Byte Space
1.822848500000000,LIN,Data 6: 255
1.823342500000000,LIN,Inter-Byte Space
1.823368000000000,LIN,Data 7: 255
1.823862000000000,LIN,Inter-Byte Space
1.823887500000000,LIN,Checksum: 185
1.827432375000000,LIN,Header Break
1.828290375000000,LIN,Inter-Byte Space
1.828371000000000,LIN,Header Sync
1.828865000000000,LIN,Inter-Byte Space
1.828890625000000,LIN,Protected ID: 61
1.841399125000000,LIN,Header Break
1.842221500000000,LIN,Inter-Byte Space
1.842337875000000,LIN,Header Sync
1.842831875000000,LIN,Inter-Byte Space
1.842857375000000,LIN,Protected ID: 60
1.843351375000000,LIN,Inter-Byte Space
1.843376875000000,LIN,Data 0: 2
1.843870875000000,LIN,Inter-Byte Space
1.843896375000000,LIN,Data 1: 2
1.844390375000000,LIN,Inter-Byte Space
1.844415875000000,LIN,Data 2: 7
1.844909875000000,LIN,Inter-Byte Space
1.844935375000000,LIN,Data 3: 255
1.845429375000000,LIN,Inter-Byte Space
1.845455000000000,LIN,Data 4: 255
1.845949000000000,LIN,Inter-Byte Space
1.845974500000000,LIN,Data 5: 255
1.846468500000000,LIN,Inter-Byte Space
1.846494000000000,LIN,Data 6: 255
1.846988000000000,LIN,Inter-Byte Space
1.847013500000000,LIN,Data 7: 255
1.847507500000000,LIN,Inter-Byte Space
1.847533000000000,LIN,Checksum: 184
1.851073875000000,LIN,Header Break
1.851931875000000,LIN,Inter-Byte Space
1.852012625000000,LIN,Header Sync
1.852506625000000,LIN,Inter-Byte Space
1.852532125000000,LIN,Protected ID: 61
1.865041000000000,LIN,Header Break
1.865869500000000,LIN,Inter-Byte Space
1.865979625000000,LIN,Header Sync
1.866473625000000,LIN,Inter-Byte Space
1.866499125000000,LIN,Protected ID: 60
1.866993125000000,LIN,Inter-Byte Space
1.867018625000000,LIN,Data 0: 3
1.867512625000000,LIN,Inter-Byte Space
1.867538125000000,LIN,Data 1: 2
1.868032125000000,LIN,Inter-Byte Space
1.868057750000000,LIN,Data 2: 7
1.868551750000000,LIN,Inter-Byte Space
1.868577250000000,LIN,Data 3: 255
1.869071250000000,LIN,Inter-Byte Space
1.869096750000000,LIN,Data 4: 255
1.869590750000000,LIN,Inter-Byte Space
1.869616250000000,LIN,Data 5: 255
1.870110250000000,LIN,Inter-Byte Space
1.870135750000000,LIN,Data 6: 255
1.870629750000000,LIN,Inter-Byte Space
1.870655250000000,LIN,Data 7: 255
1.871149250000000,LIN,Inter-Byte Space
1.871174750000000,LIN,Checksum: 183
1.874716000000000,LIN,Header Break
1.875574000000000,LIN,Inter-Byte Space
1.875654750000000,LIN,Header Sync
1.876148750000000,LIN,Inter-Byte Space
1.876174250000000,LIN,Protected ID: 61
1.888683250000000,LIN,Header Break
1.889511875000000,LIN,Inter-Byte Space
1.889622000000000,LIN,Header Sync
1.890116000000000,LIN,Inter-Byte Space
1.890141500000000,LIN,Protected ID: 60
1.890635500000000,LIN,Inter-Byte Space
1.890661000000000,LIN,Data 0: 4
1.891155000000000,LIN,Inter-Byte Space
1.891180500000000,LIN,Data 1: 2
1.891674500000000,LIN,Inter-Byte Space
1.891700000000000,LIN,Data 2: 7
1.892194000000000,LIN,Inter-Byte Space
1.892219625000000,LIN,Data 3: 255
1.892713625000000,LIN,Inter-Byte Space
1.892739125000000,LIN,Data 4: 255
1.893233125000000,LIN,Inter-Byte Space
1.893258625000000,LIN,Data 5: 255
1.893752625000000,LIN,Inter-Byte Space
1.893778125000000,LIN,Data 6: 255
1.894272125000000,LIN,Inter-Byte Space
1.894297625000000,LIN,Data 7: 255
1.894791625000000,LIN,Inter-Byte Space
1.894817125000000,LIN,Checksum: 182
1.898358000000000,LIN,Header Break
1.899216000000000,LIN,Inter-Byte Space
1.899296750000000,LIN,Header Sync
1.899790750000000,LIN,Inter-Byte Space
1.899816250000000,LIN,Protected ID: 61
1.912325250000000,LIN,Header Break
1.913153875000000,LIN,Inter-Byte Space
1.913264000000000,LIN,Header Sync
1.913758000000000,LIN,Inter-Byte Space
1.913783500000000,LIN,Protected ID: 60
1.914277500000000,LIN,Inter-Byte Space
1.914303000000000,LIN,Data 0: 5
1.914797000000000,LIN,Inter-Byte Space
1.914822500000000,LIN,Data 1: 2
1.915316500000000,LIN,Inter-Byte Space
1.915342000000000,LIN,Data 2: 7
1.915836000000000,LIN,Inter-Byte Space
1.915861500000000,LIN,Data 3: 255
1.916355500000000,LIN,Inter-Byte Space
1.916381125000000,LIN,Data 4: 255
1.916875125000000,LIN,Inter-Byte Space
1.916900625000000,LIN,Data 5: 255
1.917394625000000,LIN,Inter-Byte Space
1.917420125000000,LIN,Data 6: 255
1.917914125000000,LIN,Inter-Byte Space
1.917939625000000,LIN,Data 7: 255
1.918433625000000,LIN,Inter-Byte Space
1.918459125000000,LIN,Checksum: 181
1.922007000000000,LIN,Header Break
1.922865000000000,LIN,Inter-Byte Space
1.922945750000000,LIN,Header Sync
1.923439750000000,LIN,Inter-Byte Space
1.923465250000000,LIN,Protected ID: 61
1.935970000000000,LIN,Header Break
1.936798625000000,LIN,Inter-Byte Space
1.936908625000000,LIN,Header Sync
1.937402625000000,LIN,Inter-Byte Space
1.937428250000000,LIN,Protected ID: 60
1.937922250000000,LIN,Inter-Byte Space
1.937947750000000,LIN,Data 0: 6
1.938441750000000,LIN,Inter-Byte Space
1.938467250000000,LIN,Data 1: 2
1.938961250000000,LIN,Inter-Byte Space
1.938986750000000,LIN,Data 2: 7
1.939480750000000,LIN,Inter-Byte Space
1.939506250000000,LIN,Data 3: 255
1.940000250000000,LIN,Inter-Byte Space
1.940025750000000,LIN,Data 4: 255
1.940519750000000,LIN,Inter-Byte Space
1.940545250000000,LIN,Data 5: 255
1.941039250000000,LIN,Inter-Byte Space
1.941064875000000,LIN,Data 6: 255
1.941558875000000,LIN,Inter-Byte Space
1.941584375000000,LIN,Data 7: 255
1.942078375000000,LIN,Inter-Byte Space
1.942103875000000,LIN,Checksum: 180
1.945644750000000,LIN,Header Break
1.946502750000000,LIN,Inter-Byte Space
1.946577250000000,LIN,Header Sync
1.947071250000000,LIN,Inter-Byte Space
1.947096750000000,LIN,Protected ID: 61
1.959605750000000,LIN,Header Break
1.960434375000000,LIN,Inter-Byte Space
1.960544500000000,LIN,Header Sync
1.961038500000000,LIN,Inter-Byte Space
1.961064000000000,LIN,Protected ID: 60
1.961558000000000,LIN,Inter-Byte Space
1.961583500000000,LIN,Data 0: 7
1.962077500000000,LIN,Inter-Byte Space
1.962103000000000,LIN,Data 1: 2
1.962597000000000,LIN,Inter-Byte Space
1.962622500000000,LIN,Data 2: 7
1.963116500000000,LIN,Inter-Byte Space
1.963142000000000,LIN,Data 3: 255
1.963636000000000,LIN,Inter-Byte Space
1.963661625000000,LIN,Data 4: 255
1.964155625000000,LIN,Inter-Byte Space
1.964181125000000,LIN,Data 5: 255
1.964675125000000,LIN,Inter-Byte Space
1.964700625000000,LIN,Data 6: 255
1.965194625000000,LIN,Inter-Byte Space
1.965220125000000,LIN,Data 7: 255
1.965714125000000,LIN,Inter-Byte Space
1.965739625000000,LIN,Checksum: 179
1.969291625000000,LIN,Header Break
1.970149625000000,LIN,Inter-Byte Space
1.970230250000000,LIN,Header Sync
1.970724250000000,LIN,Inter-Byte Space
1.970749750000000,LIN,Protected ID: 61
1.971243750000000,LIN,Inter-Byte Space
1.971269375000000,LIN,Data 0: 247
1.971763375000000,LIN,Inter-Byte Space
1.971788875000000,LIN,Checksum: 138
1.975342875000000,LIN,Header Break
1.976165250000000,LIN,Inter-Byte Space
1.976281875000000,LIN,Header Sync
1.976775875000000,LIN,Inter-Byte Space
1.976801375000000,LIN,Protected ID: 60
1.977295375000000,LIN,Inter-Byte Space
1.977320875000000,LIN,Data 0: 208
1.977814875000000,LIN,Inter-Byte Space
1.977840375000000,LIN,Data 1: 1
1.978334375000000,LIN,Inter-Byte Space
1.978359875000000,LIN,Data 2: 7
1.978853875000000,LIN,Inter-Byte Space
1.978879500000000,LIN,Data 3: 255
1.979373500000000,LIN,Inter-Byte Space
1.979399000000000,LIN,Data 4: 255
1.979893000000000,LIN,Inter-Byte Space
1.979918500000000,LIN,Data 5: 255
1.980412500000000,LIN,Inter-Byte Space
1.980438000000000,LIN,Data 6: 255
1.980932000000000,LIN,Inter-Byte Space
1.980957500000000,LIN,Data 7: 255
1.981451500000000,LIN,Inter-Byte Space
1.981477000000000,LIN,Checksum: 234
1.985017625000000,LIN,Header Break
1.985875625000000,LIN,Inter-Byte Space
1.985956375000000,LIN,Header Sync
1.986450375000000,LIN,Inter-Byte Space
1.986475875000000,LIN,Protected ID: 61
1.998984500000000,LIN,Header Break
1.999813125000000,LIN,Inter-Byte Space
1.999923250000000,LIN,Header Sync
2.000417250000000,LIN,Inter-Byte Space
2.000442750000000,LIN,Protected ID: 60
2.000936750000000,LIN,Inter-Byte Space
2.000962250000000,LIN,Data 0: 208
2.001456250000000,LIN,Inter-Byte Space
2.001481750000000,LIN,Data 1: 2
2.001975750000000,LIN,Inter-Byte Space
2.002001250000000,LIN,Data 2: 7
2.002495250000000,LIN,Inter-Byte Space
2.002520750000000,LIN,Data 3: 255
2.003014750000000,LIN,Inter-Byte Space
2.003040375000000,LIN,Data 4: 255
2.003534375000000,LIN,Inter-Byte Space
2.003559875000000,LIN,Data 5: 255
2.004053875000000,LIN,Inter-Byte Space
2.004079375000000,LIN,Data 6: 255
2.004573375000000,LIN,Inter-Byte Space
2.004598875000000,LIN,Data 7: 255
2.005092875000000,LIN,Inter-Byte Space
2.005118375000000,LIN,Checksum: 233
2.008666625000000,LIN,Header Break
2.009524625000000,LIN,Inter-Byte Space
2.009605250000000,LIN,Header Sync
2.010099250000000,LIN,Inter-Byte Space
2.010124750000000,LIN,Protected ID: 61
2.010618750000000,LIN,Inter-Byte Space
2.010644250000000,LIN,Data 0: 254
2.011138250000000,LIN,Inter-Byte Space
2.011163875000000,LIN,Checksum: 131
2.014718250000000,LIN,Header Break
2.015546750000000,LIN,Inter-Byte Space
2.015656875000000,LIN,Header Sync
2.016150875000000,LIN,Inter-Byte Space
2.016176375000000,LIN,Protected ID: 60
2.016670375000000,LIN,Inter-Byte Space
2.016696000000000,LIN,Data 0: 0
2.017190000000000,LIN,Inter-Byte Space
2.017215500000000,LIN,Data 1: 2
2.017709500000000,LIN,Inter-Byte Space
2.017735000000000,LIN,Data 2: 7
2.018229000000000,LIN,Inter-Byte Space
2.018254500000000,LIN,Data 3: 255
2.018748500000000,LIN,Inter-Byte Space
2.018774000000000,LIN,Data 4: 255
2.019268000000000,LIN,Inter-Byte Space
2.019293500000000,LIN,Data 5: 255
2.019787500000000,LIN,Inter-Byte Space
2.019813000000000,LIN,Data 6: 255
2.020307000000000,LIN,Inter-Byte Space
2.020332625000000,LIN,Data 7: 255
2.020826625000000,LIN,Inter-Byte Space
2.020852125000000,LIN,Checksum: 186
2.024393000000000,LIN,Header Break
2.025251000000000,LIN,Inter-Byte Space
2.025325500000000,LIN,Header Sync
2.025819500000000,LIN,Inter-Byte Space
2.025845000000000,LIN,Protected ID: 61
2.038349750000000,LIN,Header Break
2.039178250000000,LIN,Inter-Byte Space
2.039288375000000,LIN,Header Sync
2.039782375000000,LIN,Inter-Byte Space
2.039807875000000,LIN,Protected ID: 60
2.040301875000000,LIN,Inter-Byte Space
2.040327375000000,LIN,Data 0: 1
2.040821375000000,LIN,Inter-Byte Space
2.040847000000000,LIN,Data 1: 2
2.041341000000000,LIN,Inter-Byte Space
2.041366500000000,LIN,Data 2: 7
2.041860500000000,LIN,Inter-Byte Space
2.041886000000000,LIN,Data 3: 255
2.042380000000000,LIN,Inter-Byte Space
2.042405500000000,LIN,Data 4: 255
2.042899500000000,LIN,Inter-Byte Space
2.042925000000000,LIN,Data 5: 255
2.043419000000000,LIN,Inter-Byte Space
2.043444500000000,LIN,Data 6: 255
2.043938500000000,LIN,Inter-Byte Space
2.043964125000000,LIN,Data 7: 255
2.044458125000000,LIN,Inter-Byte Space
2.044483625000000,LIN,Checksum: 185
2.048037875000000,LIN,Header Break
2.048895875000000,LIN,Inter-Byte Space
2.048976625000000,LIN,Header Sync
2.049470625000000,LIN,Inter-Byte Space
2.049496125000000,LIN,Protected ID: 61
2.049990125000000,LIN,Inter-Byte Space
2.050015625000000,LIN,Data 0: 255
2.050509625000000,LIN,Inter-Byte Space
2.050535125000000,LIN,Data 1: 0
2.051029125000000,LIN,Inter-Byte Space
2.051054625000000,LIN,Data 2: 0
2.051548625000000,LIN,Inter-Byte Space
2.051574125000000,LIN,Data 3: 0
2.052068125000000,LIN,Inter-Byte Space
2.052093750000000,LIN,Data 4: 255
2.052587750000000,LIN,Inter-Byte Space
2.052613250000000,LIN,Data 5: 255
2.053107250000000,LIN,Inter-Byte Space
2.053132750000000,LIN,Data 6: 255
2.053626750000000,LIN,Inter-Byte Space
2.053652250000000,LIN,Data 7: 255
2.054146250000000,LIN,Inter-Byte Space
2.054171750000000,LIN,Checksum: 130
2.057725750000000,LIN,Header Break
2.058583750000000,LIN,Inter-Byte Space
2.058664500000000,LIN,Header Sync
2.059158500000000,LIN,Inter-Byte Space
2.059184000000000,LIN,Protected ID: 60
2.059678000000000,LIN,Inter-Byte Space
2.059703500000000,LIN,Data 0: 1
2.060197500000000,LIN,Inter-Byte Space
2.060223000000000,LIN,Data 1: 6
2.060717000000000,LIN,Inter-Byte Space
2.060742500000000,LIN,Data 2: 9
2.061236500000000,LIN,Inter-Byte Space
2.061262000000000,LIN,Data 3: 0
2.061756000000000,LIN,Inter-Byte Space
2.061781625000000,LIN,Data 4: 255
2.062275625000000,LIN,Inter-Byte Space
2.062301125000000,LIN,Data 5: 255
2.062795125000000,LIN,Inter-Byte Space
2.062820625000000,LIN,Data 6: 255
2.063314625000000,LIN,Inter-Byte Space
2.063340125000000,LIN,Data 7: 255
2.063834125000000,LIN,Inter-Byte Space
2.063859625000000,LIN,Checksum: 179
2.067414000000000,LIN,Header Break
2.068272000000000,LIN,Inter-Byte Space
2.068353000000000,LIN,Header Sync
2.068847000000000,LIN,Inter-Byte Space
2.068872500000000,LIN,Protected ID: 61
2.069366500000000,LIN,Inter-Byte Space
2.069392000000000,LIN,Data 0: 9
2.069886000000000,LIN,Inter-Byte Space
2.069911500000000,LIN,Data 1: 1
2.070405500000000,LIN,Inter-Byte Space
2.070431000000000,LIN,Data 2: 255
2.070925000000000,LIN,Inter-Byte Space
2.070950500000000,LIN,Data 3: 255
2.071444500000000,LIN,Inter-Byte Space
2.071470125000000,LIN,Data 4: 255
2.071964125000000,LIN,Inter-Byte Space
2.071989625000000,LIN,Data 5: 255
2.072483625000000,LIN,Inter-Byte Space
2.072509125000000,LIN,Data 6: 255
2.073003125000000,LIN,Inter-Byte Space
2.073028625000000,LIN,Data 7: 255
2.073522625000000,LIN,Inter-Byte Space
2.073548125000000,LIN,Checksum: 120
2.077105875000000,LIN,Header Break
2.077963875000000,LIN,Inter-Byte Space
2.078044500000000,LIN,Header Sync
2.078538500000000,LIN,Inter-Byte Space
2.078564000000000,LIN,Protected ID: 60
2.079058000000000,LIN,Inter-Byte Space
2.079083500000000,LIN,Data 0: 1
2.079577500000000,LIN,Inter-Byte Space
2.079603125000000,LIN,Data 1: 6
2.080097125000000,LIN,Inter-Byte Space
2.080122625000000,LIN,Data 2: 12
2.080616625000000,LIN,Inter-Byte Space
2.080642125000000,LIN,Data 3: 0
2.081136125000000,LIN,Inter-Byte Space
2.081161625000000,LIN,Data 4: 255
2.081655625000000,LIN,Inter-Byte Space
2.081681125000000,LIN,Data 5: 255
2.082175125000000,LIN,Inter-Byte Space
2.082200625000000,LIN,Data 6: 255
2.082694625000000,LIN,Inter-Byte Space
