Time [s], Analyzer Name, Decoded Protocol Result
2.696509500000000,LIN,Header Break
2.697211500000000,LIN,Inter-Byte Space
2.697287875000000,LIN,Header Sync
2.697781875000000,LIN,Inter-Byte Space
2.697858500000000,LIN,Protected ID: 60
2.698352500000000,LIN,Inter-Byte Space
2.698688750000000,LIN,Data 0: 255
2.699182750000000,LIN,Inter-Byte Space
2.699207625000000,LIN,Data 1: 7
2.699701625000000,LIN,Inter-Byte Space
2.699726500000000,LIN,Data 2: 255
2.700220500000000,LIN,Inter-Byte Space
2.700245500000000,LIN,Data 3: 255
2.700739500000000,LIN,Inter-Byte Space
2.700764375000000,LIN,Data 4: 255
2.701258375000000,LIN,Inter-Byte Space
2.701283125000000,LIN,Data 5: 255
2.701777125000000,LIN,Inter-Byte Space
2.701802000000000,LIN,Data 6: 255
2.702296000000000,LIN,Inter-Byte Space
2.702320750000000,LIN,Data 7: 255
2.702814750000000,LIN,Inter-Byte Space
2.702839500000000,LIN,!CHK!
2.706471875000000,LIN,Header Break
2.707173875000000,LIN,Inter-Byte Space
2.707250250000000,LIN,Header Sync
2.707744250000000,LIN,Inter-Byte Space
2.707821000000000,LIN,Protected ID: 61
2.721521250000000,LIN,Header Break
2.722193625000000,LIN,Inter-Byte Space
2.722299625000000,LIN,Header Sync
2.722793625000000,LIN,Inter-Byte Space
2.723026125000000,LIN,Protected ID: 60
2.723520125000000,LIN,Inter-Byte Space
2.723908375000000,LIN,Data 0: 255
2.724402375000000,LIN,Inter-Byte Space
2.724427375000000,LIN,Data 1: 7
2.724921375000000,LIN,Inter-Byte Space
2.724946375000000,LIN,Data 2: 255
2.725440375000000,LIN,Inter-Byte Space
2.725465250000000,LIN,Data 3: 255
2.725959250000000,LIN,Inter-Byte Space
2.725984250000000,LIN,Data 4: 255
2.726478250000000,LIN,Inter-Byte Space
2.726503250000000,LIN,Data 5: 255
2.726997250000000,LIN,Inter-Byte Space
2.727022250000000,LIN,Data 6: 255
2.727516250000000,LIN,Inter-Byte Space
2.727541250000000,LIN,Data 7: 255
2.728035250000000,LIN,Inter-Byte Space
2.728060250000000,LIN,!CHK!
2.731433625000000,LIN,Header Break
2.732135625000000,LIN,Inter-Byte Space
2.732211875000000,LIN,Header Sync
2.732705875000000,LIN,Inter-Byte Space
2.732782750000000,LIN,Protected ID: 61
2.746430000000000,LIN,Header Break
2.747102125000000,LIN,Inter-Byte Space
2.747208125000000,LIN,Header Sync
2.747702125000000,LIN,Inter-Byte Space
2.747986375000000,LIN,Protected ID: 60
2.748480375000000,LIN,Inter-Byte Space
2.748816375000000,LIN,Data 0: 255
2.749310375000000,LIN,Inter-Byte Space
2.749335250000000,LIN,Data 1: 1
2.749829250000000,LIN,Inter-Byte Space
2.749854000000000,LIN,Data 2: 7
2.750348000000000,LIN,Inter-Byte Space
2.750372750000000,LIN,Data 3: 255
2.750866750000000,LIN,Inter-Byte Space
2.750891500000000,LIN,Data 4: 255
2.751385500000000,LIN,Inter-Byte Space
2.751410375000000,LIN,Data 5: 255
2.751904375000000,LIN,Inter-Byte Space
2.751929250000000,LIN,Data 6: 255
2.752423250000000,LIN,Inter-Byte Space
2.752448000000000,LIN,Data 7: 255
2.752942000000000,LIN,Inter-Byte Space
2.752966875000000,LIN,!CHK!
2.756391125000000,LIN,Header Break
2.757093125000000,LIN,Inter-Byte Space
2.757169500000000,LIN,Header Sync
2.757663500000000,LIN,Inter-Byte Space
2.757688375000000,LIN,Protected ID: 61
2.771387500000000,LIN,Header Break
2.772059875000000,LIN,Inter-Byte Space
2.772165875000000,LIN,Header Sync
2.772659875000000,LIN,Inter-Byte Space
2.772892500000000,LIN,Protected ID: 60
2.773386500000000,LIN,Inter-Byte Space
2.773774750000000,LIN,Data 0: 208
2.774268750000000,LIN,Inter-Byte Space
2.774293625000000,LIN,Data 1: 2
2.774787625000000,LIN,Inter-Byte Space
2.774812625000000,LIN,Data 2: 7
2.775306625000000,LIN,Inter-Byte Space
2.775331500000000,LIN,Data 3: 255
2.775825500000000,LIN,Inter-Byte Space
2.775850500000000,LIN,Data 4: 255
2.776344500000000,LIN,Inter-Byte Space
2.776369375000000,LIN,Data 5: 255
2.776863375000000,LIN,Inter-Byte Space
2.776888250000000,LIN,Data 6: 255
2.777382250000000,LIN,Inter-Byte Space
2.777407125000000,LIN,Data 7: 255
2.777901125000000,LIN,Inter-Byte Space
2.777926000000000,LIN,!CHK!
2.781351375000000,LIN,Header Break
2.782053375000000,LIN,Inter-Byte Space
2.782129750000000,LIN,Header Sync
2.782623750000000,LIN,Inter-Byte Space
2.782908125000000,LIN,Protected ID: 61
2.783402125000000,LIN,Inter-Byte Space
2.783599000000000,LIN,Data 0: 255
2.796349375000000,LIN,Header Break
2.797021750000000,LIN,Inter-Byte Space
2.797127875000000,LIN,Header Sync
2.797621875000000,LIN,Inter-Byte Space
2.797854375000000,LIN,Protected ID: 60
2.798348375000000,LIN,Inter-Byte Space
2.798736625000000,LIN,Data 0: 0
2.799230625000000,LIN,Inter-Byte Space
2.799255625000000,LIN,Data 1: 2
2.799749625000000,LIN,Inter-Byte Space
2.799774625000000,LIN,Data 2: 7
2.800268625000000,LIN,Inter-Byte Space
2.800293500000000,LIN,Data 3: 255
2.800787500000000,LIN,Inter-Byte Space
2.800812500000000,LIN,Data 4: 255
2.801306500000000,LIN,Inter-Byte Space
2.801331375000000,LIN,Data 5: 255
2.801825375000000,LIN,Inter-Byte Space
2.801850250000000,LIN,Data 6: 255
2.802344250000000,LIN,Inter-Byte Space
2.802369125000000,LIN,Data 7: 255
2.802863125000000,LIN,Inter-Byte Space
2.802888000000000,LIN,!CHK!
2.806261125000000,LIN,Header Break
2.806963125000000,LIN,Inter-Byte Space
2.807039500000000,LIN,Header Sync
2.807533500000000,LIN,Inter-Byte Space
2.807610250000000,LIN,Protected ID: 61
2.821310000000000,LIN,Header Break
2.821982375000000,LIN,Inter-Byte Space
2.822088500000000,LIN,Header Sync
2.822582500000000,LIN,Inter-Byte Space
2.822815000000000,LIN,Protected ID: 60
2.823309000000000,LIN,Inter-Byte Space
2.823697125000000,LIN,Data 0: 1
2.824191125000000,LIN,Inter-Byte Space
2.824216000000000,LIN,Data 1: 2
2.824710000000000,LIN,Inter-Byte Space
2.824734875000000,LIN,Data 2: 7
2.825228875000000,LIN,Inter-Byte Space
2.825253875000000,LIN,Data 3: 255
2.825747875000000,LIN,Inter-Byte Space
2.825772875000000,LIN,Data 4: 255
2.826266875000000,LIN,Inter-Byte Space
2.826291750000000,LIN,Data 5: 255
2.826785750000000,LIN,Inter-Byte Space
2.826810750000000,LIN,Data 6: 255
2.827304750000000,LIN,Inter-Byte Space
2.827329625000000,LIN,Data 7: 255
2.827823625000000,LIN,Inter-Byte Space
2.827848625000000,LIN,!CHK!
2.831221625000000,LIN,Header Break
2.831923625000000,LIN,Inter-Byte Space
2.832000000000000,LIN,Header Sync
2.832494000000000,LIN,Inter-Byte Space
2.832570750000000,LIN,Protected ID: 61
2.846216125000000,LIN,Header Break
2.846888250000000,LIN,Inter-Byte Space
2.846994250000000,LIN,Header Sync
2.847488250000000,LIN,Inter-Byte Space
2.847772500000000,LIN,Protected ID: 60
2.848266500000000,LIN,Inter-Byte Space
2.848602625000000,LIN,Data 0: 2
2.849096625000000,LIN,Inter-Byte Space
2.849121500000000,LIN,Data 1: 2
2.849615500000000,LIN,Inter-Byte Space
2.849640250000000,LIN,Data 2: 7
2.850134250000000,LIN,Inter-Byte Space
2.850159125000000,LIN,Data 3: 255
2.850653125000000,LIN,Inter-Byte Space
2.850677875000000,LIN,Data 4: 255
2.851171875000000,LIN,Inter-Byte Space
2.851196625000000,LIN,Data 5: 255
2.851690625000000,LIN,Inter-Byte Space
2.851715500000000,LIN,Data 6: 255
2.852209500000000,LIN,Inter-Byte Space
2.852234250000000,LIN,Data 7: 255
2.852728250000000,LIN,Inter-Byte Space
2.852753125000000,LIN,!CHK!
2.856177250000000,LIN,Header Break
2.856879250000000,LIN,Inter-Byte Space
2.856955625000000,LIN,Header Sync
2.857449625000000,LIN,Inter-Byte Space
2.857526500000000,LIN,Protected ID: 61
2.871174125000000,LIN,Header Break
2.871846375000000,LIN,Inter-Byte Space
2.871952375000000,LIN,Header Sync
2.872446375000000,LIN,Inter-Byte Space
2.872730625000000,LIN,Protected ID: 60
2.873224625000000,LIN,Inter-Byte Space
2.873560625000000,LIN,Data 0: 3
2.874054625000000,LIN,Inter-Byte Space
2.874079500000000,LIN,Data 1: 2
2.874573500000000,LIN,Inter-Byte Space
2.874598250000000,LIN,Data 2: 7
2.875092250000000,LIN,Inter-Byte Space
2.875117125000000,LIN,Data 3: 255
2.875611125000000,LIN,Inter-Byte Space
2.875636000000000,LIN,Data 4: 255
2.876130000000000,LIN,Inter-Byte Space
2.876154875000000,LIN,Data 5: 255
2.876648875000000,LIN,Inter-Byte Space
2.876673750000000,LIN,Data 6: 255
2.877167750000000,LIN,Inter-Byte Space
2.877192750000000,LIN,Data 7: 255
2.877686750000000,LIN,Inter-Byte Space
2.877711625000000,LIN,!CHK!
2.881136375000000,LIN,Header Break
2.881838375000000,LIN,Inter-Byte Space
2.881914625000000,LIN,Header Sync
2.882408625000000,LIN,Inter-Byte Space
2.882693000000000,LIN,Protected ID: 61
2.896133750000000,LIN,Header Break
2.896806250000000,LIN,Inter-Byte Space
2.896912250000000,LIN,Header Sync
2.897406250000000,LIN,Inter-Byte Space
2.897638750000000,LIN,Protected ID: 60
2.898132750000000,LIN,Inter-Byte Space
2.898521000000000,LIN,Data 0: 4
2.899015000000000,LIN,Inter-Byte Space
2.899039875000000,LIN,Data 1: 2
2.899533875000000,LIN,Inter-Byte Space
2.899558875000000,LIN,Data 2: 7
2.900052875000000,LIN,Inter-Byte Space
2.900077875000000,LIN,Data 3: 255
2.900571875000000,LIN,Inter-Byte Space
2.900596875000000,LIN,Data 4: 255
2.901090875000000,LIN,Inter-Byte Space
2.901116000000000,LIN,Data 5: 255
2.901610000000000,LIN,Inter-Byte Space
2.901634875000000,LIN,Data 6: 255
2.902128875000000,LIN,Inter-Byte Space
2.902153875000000,LIN,Data 7: 255
2.902647875000000,LIN,Inter-Byte Space
2.902672875000000,LIN,!CHK!
2.906046125000000,LIN,Header Break
2.906748125000000,LIN,Inter-Byte Space
2.906824500000000,LIN,Header Sync
2.907318500000000,LIN,Inter-Byte Space
2.907395250000000,LIN,Protected ID: 61
2.907889250000000,LIN,Inter-Byte Space
2.908086500000000,LIN,Data 0: 255
2.908580500000000,LIN,Inter-Byte Space
2.908656375000000,LIN,Data 1: 0
2.909150375000000,LIN,Inter-Byte Space
2.909226375000000,LIN,Data 2: 0
2.909720375000000,LIN,Inter-Byte Space
2.909796125000000,LIN,Data 3: 0
2.910290125000000,LIN,Inter-Byte Space
2.910366000000000,LIN,Data 4: 255
2.910860000000000,LIN,Inter-Byte Space
2.910935875000000,LIN,Data 5: 255
2.911429875000000,LIN,Inter-Byte Space
2.911505625000000,LIN,Data 6: 255
2.911999625000000,LIN,Inter-Byte Space
2.912075500000000,LIN,Data 7: 255
2.912569500000000,LIN,Inter-Byte Space
2.912645375000000,LIN,!CHK!
2.921094375000000,LIN,Header Break
2.921796375000000,LIN,Inter-Byte Space
2.921872500000000,LIN,Header Sync
2.922366500000000,LIN,Inter-Byte Space
2.922598875000000,LIN,Protected ID: 60
2.923092875000000,LIN,Inter-Byte Space
2.923480750000000,LIN,Data 0: 4
2.923974750000000,LIN,Inter-Byte Space
2.923999500000000,LIN,Data 1: 6
2.924493500000000,LIN,Inter-Byte Space
2.924518375000000,LIN,Data 2: 9
2.925012375000000,LIN,Inter-Byte Space
2.925037125000000,LIN,Data 3: 0
2.925531125000000,LIN,Inter-Byte Space
2.925556000000000,LIN,Data 4: 255
2.926050000000000,LIN,Inter-Byte Space
2.926074875000000,LIN,Data 5: 255
2.926568875000000,LIN,Inter-Byte Space
2.926593625000000,LIN,Data 6: 255
2.927087625000000,LIN,Inter-Byte Space
2.927112375000000,LIN,Data 7: 255
2.927606375000000,LIN,Inter-Byte Space
2.927631250000000,LIN,!CHK!
2.931003500000000,LIN,Header Break
2.931705500000000,LIN,Inter-Byte Space
2.931781875000000,LIN,Header Sync
2.932275875000000,LIN,Inter-Byte Space
2.932352625000000,LIN,Protected ID: 61
2.932846625000000,LIN,Inter-Byte Space
2.933095500000000,LIN,Data 0: 9
2.933589500000000,LIN,Inter-Byte Space
2.933665250000000,LIN,Data 1: 1
2.934159250000000,LIN,Inter-Byte Space
2.934235000000000,LIN,Data 2: 255
2.934729000000000,LIN,Inter-Byte Space
2.934804875000000,LIN,Data 3: 255
2.935298875000000,LIN,Inter-Byte Space
2.935374625000000,LIN,Data 4: 255
2.935868625000000,LIN,Inter-Byte Space
2.935944375000000,LIN,Data 5: 255
2.936438375000000,LIN,Inter-Byte Space
2.936514125000000,LIN,Data 6: 255
2.937008125000000,LIN,Inter-Byte Space
2.937084000000000,LIN,Data 7: 255
2.937578000000000,LIN,Inter-Byte Space
2.937653875000000,LIN,!CHK!
2.945999250000000,LIN,Header Break
2.946701250000000,LIN,Inter-Byte Space
2.946777625000000,LIN,Header Sync
2.947271625000000,LIN,Inter-Byte Space
2.947556125000000,LIN,Protected ID: 60
2.948050125000000,LIN,Inter-Byte Space
2.948438375000000,LIN,Data 0: 4
2.948932375000000,LIN,Inter-Byte Space
2.948957250000000,LIN,Data 1: 6
2.949451250000000,LIN,Inter-Byte Space
2.949476250000000,LIN,Data 2: 12
2.949970250000000,LIN,Inter-Byte Space
2.949995125000000,LIN,Data 3: 0
2.950489125000000,LIN,Inter-Byte Space
2.950514125000000,LIN,Data 4: 255
2.951008125000000,LIN,Inter-Byte Space
2.951033000000000,LIN,Data 5: 255
2.951527000000000,LIN,Inter-Byte Space
2.951552000000000,LIN,Data 6: 255
2.952046000000000,LIN,Inter-Byte Space
2.952071000000000,LIN,Data 7: 255
2.952565000000000,LIN,Inter-Byte Space
2.952590125000000,LIN,!CHK!
2.955963250000000,LIN,Header Break
2.956665250000000,LIN,Inter-Byte Space
2.956741750000000,LIN,Header Sync
2.957235750000000,LIN,Inter-Byte Space
2.957312625000000,LIN,Protected ID: 61
2.957806625000000,LIN,Inter-Byte Space
2.958003750000000,LIN,Data 0: 12
2.958497750000000,LIN,Inter-Byte Space
2.958573625000000,LIN,Data 1: 26
2.959067625000000,LIN,Inter-Byte Space
2.959143375000000,LIN,Data 2: 255
2.959637375000000,LIN,Inter-Byte Space
2.959713250000000,LIN,Data 3: 255
2.960207250000000,LIN,Inter-Byte Space
2.960283125000000,LIN,Data 4: 255
2.960777125000000,LIN,Inter-Byte Space
2.960853000000000,LIN,Data 5: 255
2.961347000000000,LIN,Inter-Byte Space
2.961422875000000,LIN,Data 6: 255
2.961916875000000,LIN,Inter-Byte Space
2.961992750000000,LIN,Data 7: 255
2.962486750000000,LIN,Inter-Byte Space
2.962562500000000,LIN,!CHK!
2.970959750000000,LIN,Header Break
2.971661750000000,LIN,Inter-Byte Space
2.971738125000000,LIN,Header Sync
2.972232125000000,LIN,Inter-Byte Space
2.972516500000000,LIN,Protected ID: 60
2.973010500000000,LIN,Inter-Byte Space
2.973346750000000,LIN,Data 0: 4
2.973840750000000,LIN,Inter-Byte Space
2.973865625000000,LIN,Data 1: 6
2.974359625000000,LIN,Inter-Byte Space
2.974384625000000,LIN,Data 2: 13
2.974878625000000,LIN,Inter-Byte Space
2.974903500000000,LIN,Data 3: 0
2.975397500000000,LIN,Inter-Byte Space
2.975422375000000,LIN,Data 4: 255
2.975916375000000,LIN,Inter-Byte Space
2.975941250000000,LIN,Data 5: 255
2.976435250000000,LIN,Inter-Byte Space
2.976460250000000,LIN,Data 6: 255
2.976954250000000,LIN,Inter-Byte Space
2.976979125000000,LIN,Data 7: 255
2.977473125000000,LIN,Inter-Byte Space
2.977498000000000,LIN,!CHK!
2.980923250000000,LIN,Header Break
2.981625250000000,LIN,Inter-Byte Space
2.981701625000000,LIN,Header Sync
2.982195625000000,LIN,Inter-Byte Space
2.982480000000000,LIN,Protected ID: 61
2.982974000000000,LIN,Inter-Byte Space
2.983222625000000,LIN,Data 0: 13
2.983716625000000,LIN,Inter-Byte Space
2.983792500000000,LIN,Data 1: 198
2.984286500000000,LIN,Inter-Byte Space
2.984362375000000,LIN,Data 2: 255
2.984856375000000,LIN,Inter-Byte Space
2.984932250000000,LIN,Data 3: 255
2.985426250000000,LIN,Inter-Byte Space
2.985502125000000,LIN,Data 4: 255
2.985996125000000,LIN,Inter-Byte Space
2.986071875000000,LIN,Data 5: 255
2.986565875000000,LIN,Inter-Byte Space
2.986641625000000,LIN,Data 6: 255
2.987135625000000,LIN,Inter-Byte Space
2.987211500000000,LIN,Data 7: 255
2.987705500000000,LIN,Inter-Byte Space
2.987781375000000,LIN,!CHK!
2.995919500000000,LIN,Header Break
2.996621500000000,LIN,Inter-Byte Space
2.996697875000000,LIN,Header Sync
2.997191875000000,LIN,Inter-Byte Space
2.997424375000000,LIN,Protected ID: 60
2.997918375000000,LIN,Inter-Byte Space
2.998306500000000,LIN,Data 0: 4
2.998800500000000,LIN,Inter-Byte Space
2.998825375000000,LIN,Data 1: 6
2.999319375000000,LIN,Inter-Byte Space
2.999344250000000,LIN,Data 2: 10
2.999838250000000,LIN,Inter-Byte Space
2.999863250000000,LIN,Data 3: 0
3.000357250000000,LIN,Inter-Byte Space
3.000382125000000,LIN,Data 4: 255
3.000876125000000,LIN,Inter-Byte Space
3.000901000000000,LIN,Data 5: 255
3.001395000000000,LIN,Inter-Byte Space
3.001419875000000,LIN,Data 6: 255
3.001913875000000,LIN,Inter-Byte Space
3.001938750000000,LIN,Data 7: 255
3.002432750000000,LIN,Inter-Byte Space
3.002457750000000,LIN,!CHK!
3.005882250000000,LIN,Header Break
3.006584250000000,LIN,Inter-Byte Space
3.006660500000000,LIN,Header Sync
3.007154500000000,LIN,Inter-Byte Space
3.007438750000000,LIN,Protected ID: 61
3.007932750000000,LIN,Inter-Byte Space
3.008129375000000,LIN,Data 0: 10
3.008623375000000,LIN,Inter-Byte Space
3.008699250000000,LIN,Data 1: 0
3.009193250000000,LIN,Inter-Byte Space
3.009269000000000,LIN,Data 2: 255
3.009763000000000,LIN,Inter-Byte Space
3.009838875000000,LIN,Data 3: 255
3.010332875000000,LIN,Inter-Byte Space
3.010408750000000,LIN,Data 4: 255
3.010902750000000,LIN,Inter-Byte Space
3.010978625000000,LIN,Data 5: 255
3.011472625000000,LIN,Inter-Byte Space
3.011548375000000,LIN,Data 6: 255
3.012042375000000,LIN,Inter-Byte Space
3.012118250000000,LIN,Data 7: 255
3.012612250000000,LIN,Inter-Byte Space
3.012688125000000,LIN,!CHK!
3.020877250000000,LIN,Header Break
3.021579250000000,LIN,Inter-Byte Space
3.021655500000000,LIN,Header Sync
3.022149500000000,LIN,Inter-Byte Space
3.022382000000000,LIN,Protected ID: 60
3.022876000000000,LIN,Inter-Byte Space
3.023264000000000,LIN,Data 0: 4
3.023758000000000,LIN,Inter-Byte Space
3.023782875000000,LIN,Data 1: 6
3.024276875000000,LIN,Inter-Byte Space
3.024301625000000,LIN,Data 2: 11
3.024795625000000,LIN,Inter-Byte Space
3.024820500000000,LIN,Data 3: 0
3.025314500000000,LIN,Inter-Byte Space
3.025339375000000,LIN,Data 4: 255
3.025833375000000,LIN,Inter-Byte Space
3.025858125000000,LIN,Data 5: 255
3.026352125000000,LIN,Inter-Byte Space
3.026376875000000,LIN,Data 6: 255
3.026870875000000,LIN,Inter-Byte Space
3.026895625000000,LIN,Data 7: 255
3.027389625000000,LIN,Inter-Byte Space
3.027414375000000,LIN,!CHK!
3.030786500000000,LIN,Header Break
3.031488500000000,LIN,Inter-Byte Space
3.031564750000000,LIN,Header Sync
3.032058750000000,LIN,Inter-Byte Space
3.032135500000000,LIN,Protected ID: 61
3.032629500000000,LIN,Inter-Byte Space
3.032878500000000,LIN,Data 0: 11
3.033372500000000,LIN,Inter-Byte Space
3.033448375000000,LIN,Data 1: 95
3.033942375000000,LIN,Inter-Byte Space
3.034018250000000,LIN,Data 2: 255
3.034512250000000,LIN,Inter-Byte Space
3.034588125000000,LIN,Data 3: 255
3.035082125000000,LIN,Inter-Byte Space
3.035158125000000,LIN,Data 4: 255
3.035652125000000,LIN,Inter-Byte Space
3.035728000000000,LIN,Data 5: 255
3.036222000000000,LIN,Inter-Byte Space
3.036297875000000,LIN,Data 6: 255
3.036791875000000,LIN,Inter-Byte Space
3.036867625000000,LIN,Data 7: 255
3.037361625000000,LIN,Inter-Byte Space
3.037437500000000,LIN,!CHK!
3.045834375000000,LIN,Header Break
3.046536375000000,LIN,Inter-Byte Space
3.046612750000000,LIN,Header Sync
3.047106750000000,LIN,Inter-Byte Space
3.047339125000000,LIN,Protected ID: 60
3.047833125000000,LIN,Inter-Byte Space
3.048221125000000,LIN,Data 0: 4
3.048715125000000,LIN,Inter-Byte Space
3.048740000000000,LIN,Data 1: 4
3.049234000000000,LIN,Inter-Byte Space
3.049258625000000,LIN,Data 2: 0
3.049752625000000,LIN,Inter-Byte Space
3.049777500000000,LIN,Data 3: 0
3.050271500000000,LIN,Inter-Byte Space
3.050296250000000,LIN,Data 4: 255
3.050790250000000,LIN,Inter-Byte Space
3.050815125000000,LIN,Data 5: 255
3.051309125000000,LIN,Inter-Byte Space
3.051333875000000,LIN,Data 6: 255
3.051827875000000,LIN,Inter-Byte Space
3.051852750000000,LIN,Data 7: 255
3.052346750000000,LIN,Inter-Byte Space
3.052371625000000,LIN,!CHK!
3.055743875000000,LIN,Header Break
3.056445875000000,LIN,Inter-Byte Space
3.056522125000000,LIN,Header Sync
3.057016125000000,LIN,Inter-Byte Space
3.057092750000000,LIN,Protected ID: 61
3.057586750000000,LIN,Inter-Byte Space
3.058094875000000,LIN,Data 0: 255
3.058588875000000,LIN,Inter-Byte Space
3.058664750000000,LIN,Data 1: 0
3.059158750000000,LIN,Inter-Byte Space
3.059234625000000,LIN,Data 2: 0
3.059728625000000,LIN,Inter-Byte Space
3.059804625000000,LIN,Data 3: 0
3.060298625000000,LIN,Inter-Byte Space
3.060374500000000,LIN,Data 4: 0
3.060868500000000,LIN,Inter-Byte Space
3.060944375000000,LIN,Data 5: 255
3.061438375000000,LIN,Inter-Byte Space
3.061514375000000,LIN,Data 6: 255
3.062008375000000,LIN,Inter-Byte Space
3.062084250000000,LIN,Data 7: 255
3.062578250000000,LIN,Inter-Byte Space
3.062654125000000,LIN,!CHK!
3.070738250000000,LIN,Header Break
3.071440250000000,LIN,Inter-Byte Space
