Time [s], Analyzer Name, Decoded Protocol Result
3.173208625000000,LIN,Header Break
3.173880750000000,LIN,Inter-Byte Space
3.173986875000000,LIN,Header Sync
3.174480875000000,LIN,Inter-Byte Space
3.174557500000000,LIN,Protected ID: 60
3.175051500000000,LIN,Inter-Byte Space
3.175387750000000,LIN,Data 0: 255
3.175881750000000,LIN,Inter-Byte Space
3.175906500000000,LIN,Data 1: 7
3.176400500000000,LIN,Inter-Byte Space
3.176425250000000,LIN,Data 2: 255
3.176919250000000,LIN,Inter-Byte Space
3.176944125000000,LIN,Data 3: 255
3.177438125000000,LIN,Inter-Byte Space
3.177463000000000,LIN,Data 4: 255
3.177957000000000,LIN,Inter-Byte Space
3.177981875000000,LIN,Data 5: 255
3.178475875000000,LIN,Inter-Byte Space
3.178500625000000,LIN,Data 6: 255
3.178994625000000,LIN,Inter-Byte Space
3.179019375000000,LIN,Data 7: 255
3.179513375000000,LIN,Inter-Byte Space
3.179538125000000,LIN,!CHK!
3.183169625000000,LIN,Header Break
3.183871625000000,LIN,Inter-Byte Space
3.183947875000000,LIN,Header Sync
3.184441875000000,LIN,Inter-Byte Space
3.184518500000000,LIN,Protected ID: 61
3.198213250000000,LIN,Header Break
3.198885375000000,LIN,Inter-Byte Space
3.198991375000000,LIN,Header Sync
3.199485375000000,LIN,Inter-Byte Space
3.199717750000000,LIN,Protected ID: 60
3.200211750000000,LIN,Inter-Byte Space
3.200599750000000,LIN,Data 0: 255
3.201093750000000,LIN,Inter-Byte Space
3.201118500000000,LIN,Data 1: 7
3.201612500000000,LIN,Inter-Byte Space
3.201637375000000,LIN,Data 2: 255
3.202131375000000,LIN,Inter-Byte Space
3.202156125000000,LIN,Data 3: 255
3.202650125000000,LIN,Inter-Byte Space
3.202674875000000,LIN,Data 4: 255
3.203168875000000,LIN,Inter-Byte Space
3.203193750000000,LIN,Data 5: 255
3.203687750000000,LIN,Inter-Byte Space
3.203712375000000,LIN,Data 6: 255
3.204206375000000,LIN,Inter-Byte Space
3.204231125000000,LIN,Data 7: 255
3.204725125000000,LIN,Inter-Byte Space
3.204749875000000,LIN,!CHK!
3.208121875000000,LIN,Header Break
3.208823875000000,LIN,Inter-Byte Space
3.208900000000000,LIN,Header Sync
3.209394000000000,LIN,Inter-Byte Space
3.209470750000000,LIN,Protected ID: 61
3.223113625000000,LIN,Header Break
3.223785625000000,LIN,Inter-Byte Space
3.223891625000000,LIN,Header Sync
3.224385625000000,LIN,Inter-Byte Space
3.224669625000000,LIN,Protected ID: 60
3.225163625000000,LIN,Inter-Byte Space
3.225499375000000,LIN,Data 0: 255
3.225993375000000,LIN,Inter-Byte Space
3.226018125000000,LIN,Data 1: 1
3.226512125000000,LIN,Inter-Byte Space
3.226536750000000,LIN,Data 2: 7
3.227030750000000,LIN,Inter-Byte Space
3.227055500000000,LIN,Data 3: 255
3.227549500000000,LIN,Inter-Byte Space
3.227574125000000,LIN,Data 4: 255
3.228068125000000,LIN,Inter-Byte Space
3.228092750000000,LIN,Data 5: 255
3.228586750000000,LIN,Inter-Byte Space
3.228611500000000,LIN,Data 6: 255
3.229105500000000,LIN,Inter-Byte Space
3.229130125000000,LIN,Data 7: 255
3.229624125000000,LIN,Inter-Byte Space
3.229648875000000,LIN,!CHK!
3.233072625000000,LIN,Header Break
3.233774625000000,LIN,Inter-Byte Space
3.233850750000000,LIN,Header Sync
3.234344750000000,LIN,Inter-Byte Space
3.234369500000000,LIN,Protected ID: 61
3.248066750000000,LIN,Header Break
3.248738875000000,LIN,Inter-Byte Space
3.248844875000000,LIN,Header Sync
3.249338875000000,LIN,Inter-Byte Space
3.249571125000000,LIN,Protected ID: 60
3.250065125000000,LIN,Inter-Byte Space
3.250453000000000,LIN,Data 0: 208
3.250947000000000,LIN,Inter-Byte Space
3.250971750000000,LIN,Data 1: 2
3.251465750000000,LIN,Inter-Byte Space
3.251490500000000,LIN,Data 2: 7
3.251984500000000,LIN,Inter-Byte Space
3.252009250000000,LIN,Data 3: 255
3.252503250000000,LIN,Inter-Byte Space
3.252528000000000,LIN,Data 4: 255
3.253022000000000,LIN,Inter-Byte Space
3.253046750000000,LIN,Data 5: 255
3.253540750000000,LIN,Inter-Byte Space
3.253565500000000,LIN,Data 6: 255
3.254059500000000,LIN,Inter-Byte Space
3.254084375000000,LIN,Data 7: 255
3.254578375000000,LIN,Inter-Byte Space
3.254603125000000,LIN,!CHK!
3.258027125000000,LIN,Header Break
3.258729125000000,LIN,Inter-Byte Space
3.258805375000000,LIN,Header Sync
3.259299375000000,LIN,Inter-Byte Space
3.259583625000000,LIN,Protected ID: 61
3.260077625000000,LIN,Inter-Byte Space
3.260314125000000,LIN,Data 0: 255
3.260808125000000,LIN,Inter-Byte Space
3.260846000000000,LIN,!FRAME!
3.273021000000000,LIN,Header Break
3.273693125000000,LIN,Inter-Byte Space
3.273799125000000,LIN,Header Sync
3.274293125000000,LIN,Inter-Byte Space
3.274525375000000,LIN,Protected ID: 60
3.275019375000000,LIN,Inter-Byte Space
3.275407375000000,LIN,Data 0: 0
3.275901375000000,LIN,Inter-Byte Space
3.275926125000000,LIN,Data 1: 2
3.276420125000000,LIN,Inter-Byte Space
3.276445000000000,LIN,Data 2: 7
3.276939000000000,LIN,Inter-Byte Space
3.276963875000000,LIN,Data 3: 255
3.277457875000000,LIN,Inter-Byte Space
3.277482750000000,LIN,Data 4: 255
3.277976750000000,LIN,Inter-Byte Space
3.278001500000000,LIN,Data 5: 255
3.278495500000000,LIN,Inter-Byte Space
3.278520375000000,LIN,Data 6: 255
3.279014375000000,LIN,Inter-Byte Space
3.279039250000000,LIN,Data 7: 255
3.279533250000000,LIN,Inter-Byte Space
3.279558000000000,LIN,!CHK!
3.282930625000000,LIN,Header Break
3.283632625000000,LIN,Inter-Byte Space
3.283708750000000,LIN,Header Sync
3.284202750000000,LIN,Inter-Byte Space
3.284279500000000,LIN,Protected ID: 61
3.297974625000000,LIN,Header Break
3.298646750000000,LIN,Inter-Byte Space
3.298752750000000,LIN,Header Sync
3.299246750000000,LIN,Inter-Byte Space
3.299479000000000,LIN,Protected ID: 60
3.299973000000000,LIN,Inter-Byte Space
3.300360875000000,LIN,Data 0: 1
3.300854875000000,LIN,Inter-Byte Space
3.300879750000000,LIN,Data 1: 2
3.301373750000000,LIN,Inter-Byte Space
3.301398500000000,LIN,Data 2: 7
3.301892500000000,LIN,Inter-Byte Space
3.301917250000000,LIN,Data 3: 255
3.302411250000000,LIN,Inter-Byte Space
3.302436125000000,LIN,Data 4: 255
3.302930125000000,LIN,Inter-Byte Space
3.302954875000000,LIN,Data 5: 255
3.303448875000000,LIN,Inter-Byte Space
3.303473625000000,LIN,Data 6: 255
3.303967625000000,LIN,Inter-Byte Space
3.303992625000000,LIN,Data 7: 255
3.304486625000000,LIN,Inter-Byte Space
3.304511500000000,LIN,!CHK!
3.307884375000000,LIN,Header Break
3.308586375000000,LIN,Inter-Byte Space
3.308662625000000,LIN,Header Sync
3.309156625000000,LIN,Inter-Byte Space
3.309233250000000,LIN,Protected ID: 61
3.309727250000000,LIN,Inter-Byte Space
3.309977000000000,LIN,Data 0: 255
3.310471000000000,LIN,Inter-Byte Space
3.310547250000000,LIN,Data 1: 0
3.311041250000000,LIN,Inter-Byte Space
3.311117500000000,LIN,Data 2: 0
3.311611500000000,LIN,Inter-Byte Space
3.311687750000000,LIN,Data 3: 0
3.312181750000000,LIN,Inter-Byte Space
3.312258125000000,LIN,Data 4: 255
3.312752125000000,LIN,Inter-Byte Space
3.312828500000000,LIN,Data 5: 255
3.313322500000000,LIN,Inter-Byte Space
3.313398750000000,LIN,Data 6: 255
3.313892750000000,LIN,Inter-Byte Space
3.313969000000000,LIN,Data 7: 255
3.314463000000000,LIN,Inter-Byte Space
3.314539375000000,LIN,!CHK!
3.322876750000000,LIN,Header Break
3.323578750000000,LIN,Inter-Byte Space
3.323654875000000,LIN,Header Sync
3.324148875000000,LIN,Inter-Byte Space
3.324433000000000,LIN,Protected ID: 60
3.324927000000000,LIN,Inter-Byte Space
3.325263125000000,LIN,Data 0: 1
3.325757125000000,LIN,Inter-Byte Space
3.325782000000000,LIN,Data 1: 6
3.326276000000000,LIN,Inter-Byte Space
3.326300875000000,LIN,Data 2: 9
3.326794875000000,LIN,Inter-Byte Space
3.326819750000000,LIN,Data 3: 0
3.327313750000000,LIN,Inter-Byte Space
3.327338625000000,LIN,Data 4: 255
3.327832625000000,LIN,Inter-Byte Space
3.327857375000000,LIN,Data 5: 255
3.328351375000000,LIN,Inter-Byte Space
3.328376000000000,LIN,Data 6: 255
3.328870000000000,LIN,Inter-Byte Space
3.328894875000000,LIN,Data 7: 255
3.329388875000000,LIN,Inter-Byte Space
3.329413625000000,LIN,!CHK!
3.332837750000000,LIN,Header Break
3.333539750000000,LIN,Inter-Byte Space
3.333616000000000,LIN,Header Sync
3.334110000000000,LIN,Inter-Byte Space
3.334186750000000,LIN,Protected ID: 61
3.334680750000000,LIN,Inter-Byte Space
3.334930625000000,LIN,Data 0: 9
3.335424625000000,LIN,Inter-Byte Space
3.335501000000000,LIN,Data 1: 1
3.335995000000000,LIN,Inter-Byte Space
3.336071250000000,LIN,Data 2: 255
3.336565250000000,LIN,Inter-Byte Space
3.336641625000000,LIN,Data 3: 255
3.337135625000000,LIN,Inter-Byte Space
3.337211875000000,LIN,Data 4: 255
3.337705875000000,LIN,Inter-Byte Space
3.337782250000000,LIN,Data 5: 255
3.338276250000000,LIN,Inter-Byte Space
3.338352625000000,LIN,Data 6: 255
3.338846625000000,LIN,Inter-Byte Space
3.338922875000000,LIN,Data 7: 255
3.339416875000000,LIN,Inter-Byte Space
3.339493125000000,LIN,!CHK!
3.347830125000000,LIN,Header Break
3.348532125000000,LIN,Inter-Byte Space
3.348608250000000,LIN,Header Sync
3.349102250000000,LIN,Inter-Byte Space
3.349386625000000,LIN,Protected ID: 60
3.349880625000000,LIN,Inter-Byte Space
3.350216625000000,LIN,Data 0: 1
3.350710625000000,LIN,Inter-Byte Space
3.350735500000000,LIN,Data 1: 6
3.351229500000000,LIN,Inter-Byte Space
3.351254250000000,LIN,Data 2: 12
3.351748250000000,LIN,Inter-Byte Space
3.351772875000000,LIN,Data 3: 0
3.352266875000000,LIN,Inter-Byte Space
3.352291750000000,LIN,Data 4: 255
3.352785750000000,LIN,Inter-Byte Space
3.352810500000000,LIN,Data 5: 255
3.353304500000000,LIN,Inter-Byte Space
3.353329375000000,LIN,Data 6: 255
3.353823375000000,LIN,Inter-Byte Space
3.353848250000000,LIN,Data 7: 255
3.354342250000000,LIN,Inter-Byte Space
3.354367125000000,LIN,!CHK!
3.357791875000000,LIN,Header Break
3.358493875000000,LIN,Inter-Byte Space
3.358570250000000,LIN,Header Sync
3.359064250000000,LIN,Inter-Byte Space
3.359348625000000,LIN,Protected ID: 61
3.359842625000000,LIN,Inter-Byte Space
3.360040500000000,LIN,Data 0: 12
3.360534500000000,LIN,Inter-Byte Space
3.360610875000000,LIN,Data 1: 26
3.361104875000000,LIN,Inter-Byte Space
3.361181250000000,LIN,Data 2: 255
3.361675250000000,LIN,Inter-Byte Space
3.361751625000000,LIN,Data 3: 255
3.362245625000000,LIN,Inter-Byte Space
3.362321875000000,LIN,Data 4: 255
3.362815875000000,LIN,Inter-Byte Space
3.362892250000000,LIN,Data 5: 255
3.363386250000000,LIN,Inter-Byte Space
3.363462625000000,LIN,Data 6: 255
3.363956625000000,LIN,Inter-Byte Space
3.364033000000000,LIN,Data 7: 255
3.364527000000000,LIN,Inter-Byte Space
3.364603375000000,LIN,!CHK!
3.372787750000000,LIN,Header Break
3.373489750000000,LIN,Inter-Byte Space
3.373566000000000,LIN,Header Sync
3.374060000000000,LIN,Inter-Byte Space
3.374292375000000,LIN,Protected ID: 60
3.374786375000000,LIN,Inter-Byte Space
3.375174375000000,LIN,Data 0: 1
3.375668375000000,LIN,Inter-Byte Space
3.375693250000000,LIN,Data 1: 6
3.376187250000000,LIN,Inter-Byte Space
3.376212125000000,LIN,Data 2: 13
3.376706125000000,LIN,Inter-Byte Space
3.376731000000000,LIN,Data 3: 0
3.377225000000000,LIN,Inter-Byte Space
3.377249875000000,LIN,Data 4: 255
3.377743875000000,LIN,Inter-Byte Space
3.377768750000000,LIN,Data 5: 255
3.378262750000000,LIN,Inter-Byte Space
3.378287625000000,LIN,Data 6: 255
3.378781625000000,LIN,Inter-Byte Space
3.378806500000000,LIN,Data 7: 255
3.379300500000000,LIN,Inter-Byte Space
3.379325375000000,LIN,!CHK!
3.382750250000000,LIN,Header Break
3.383452250000000,LIN,Inter-Byte Space
3.383528625000000,LIN,Header Sync
3.384022625000000,LIN,Inter-Byte Space
3.384307000000000,LIN,Protected ID: 61
3.384801000000000,LIN,Inter-Byte Space
3.385050625000000,LIN,Data 0: 13
3.385544625000000,LIN,Inter-Byte Space
3.385621125000000,LIN,Data 1: 198
3.386115125000000,LIN,Inter-Byte Space
3.386191500000000,LIN,Data 2: 255
3.386685500000000,LIN,Inter-Byte Space
3.386762000000000,LIN,Data 3: 255
3.387256000000000,LIN,Inter-Byte Space
3.387332500000000,LIN,Data 4: 255
3.387826500000000,LIN,Inter-Byte Space
3.387902875000000,LIN,Data 5: 255
3.388396875000000,LIN,Inter-Byte Space
3.388473375000000,LIN,Data 6: 255
3.388967375000000,LIN,Inter-Byte Space
3.389043875000000,LIN,Data 7: 255
3.389537875000000,LIN,Inter-Byte Space
3.389614250000000,LIN,!CHK!
3.397745500000000,LIN,Header Break
3.398447500000000,LIN,Inter-Byte Space
3.398523875000000,LIN,Header Sync
3.399017875000000,LIN,Inter-Byte Space
3.399250250000000,LIN,Protected ID: 60
3.399744250000000,LIN,Inter-Byte Space
3.400132250000000,LIN,Data 0: 1
3.400626250000000,LIN,Inter-Byte Space
3.400651125000000,LIN,Data 1: 6
3.401145125000000,LIN,Inter-Byte Space
3.401170125000000,LIN,Data 2: 10
3.401664125000000,LIN,Inter-Byte Space
3.401689000000000,LIN,Data 3: 0
3.402183000000000,LIN,Inter-Byte Space
3.402207875000000,LIN,Data 4: 255
3.402701875000000,LIN,Inter-Byte Space
3.402726750000000,LIN,Data 5: 255
3.403220750000000,LIN,Inter-Byte Space
3.403245625000000,LIN,Data 6: 255
3.403739625000000,LIN,Inter-Byte Space
3.403764625000000,LIN,Data 7: 255
3.404258625000000,LIN,Inter-Byte Space
3.404283500000000,LIN,!CHK!
3.407656375000000,LIN,Header Break
3.408358375000000,LIN,Inter-Byte Space
3.408434625000000,LIN,Header Sync
3.408928625000000,LIN,Inter-Byte Space
3.409005375000000,LIN,Protected ID: 61
3.409499375000000,LIN,Inter-Byte Space
3.409697125000000,LIN,Data 0: 10
3.410191125000000,LIN,Inter-Byte Space
3.410267500000000,LIN,Data 1: 0
3.410761500000000,LIN,Inter-Byte Space
3.410837875000000,LIN,Data 2: 255
3.411331875000000,LIN,Inter-Byte Space
3.411408250000000,LIN,Data 3: 255
3.411902250000000,LIN,Inter-Byte Space
3.411978625000000,LIN,Data 4: 255
3.412472625000000,LIN,Inter-Byte Space
3.412549125000000,LIN,Data 5: 255
3.413043125000000,LIN,Inter-Byte Space
3.413119500000000,LIN,Data 6: 255
3.413613500000000,LIN,Inter-Byte Space
3.413689875000000,LIN,Data 7: 255
3.414183875000000,LIN,Inter-Byte Space
3.414260250000000,LIN,!CHK!
3.422652500000000,LIN,Header Break
3.423354500000000,LIN,Inter-Byte Space
3.423430875000000,LIN,Header Sync
3.423924875000000,LIN,Inter-Byte Space
3.424209375000000,LIN,Protected ID: 60
3.424703375000000,LIN,Inter-Byte Space
3.425091500000000,LIN,Data 0: 1
3.425585500000000,LIN,Inter-Byte Space
3.425610375000000,LIN,Data 1: 6
3.426104375000000,LIN,Inter-Byte Space
3.426129125000000,LIN,Data 2: 11
3.426623125000000,LIN,Inter-Byte Space
3.426648000000000,LIN,Data 3: 0
3.427142000000000,LIN,Inter-Byte Space
3.427166875000000,LIN,Data 4: 255
3.427660875000000,LIN,Inter-Byte Space
3.427685750000000,LIN,Data 5: 255
3.428179750000000,LIN,Inter-Byte Space
3.428204625000000,LIN,Data 6: 255
3.428698625000000,LIN,Inter-Byte Space
3.428723500000000,LIN,Data 7: 255
3.429217500000000,LIN,Inter-Byte Space
3.429242375000000,LIN,!CHK!
3.432614625000000,LIN,Header Break
3.433316625000000,LIN,Inter-Byte Space
3.433392875000000,LIN,Header Sync
3.433886875000000,LIN,Inter-Byte Space
3.433963625000000,LIN,Protected ID: 61
3.434457625000000,LIN,Inter-Byte Space
3.434707375000000,LIN,Data 0: 11
3.435201375000000,LIN,Inter-Byte Space
3.435277875000000,LIN,Data 1: 95
3.435771875000000,LIN,Inter-Byte Space
3.435848375000000,LIN,Data 2: 255
3.436342375000000,LIN,Inter-Byte Space
3.436418875000000,LIN,Data 3: 255
3.436912875000000,LIN,Inter-Byte Space
3.436989250000000,LIN,Data 4: 255
3.437483250000000,LIN,Inter-Byte Space
3.437559750000000,LIN,Data 5: 255
3.438053750000000,LIN,Inter-Byte Space
3.438130250000000,LIN,Data 6: 255
3.438624250000000,LIN,Inter-Byte Space
3.438700750000000,LIN,Data 7: 255
3.439194750000000,LIN,Inter-Byte Space
3.439271250000000,LIN,!CHK!
3.447610750000000,LIN,Header Break
3.448312750000000,LIN,Inter-Byte Space
3.448389000000000,LIN,Header Sync
3.448883000000000,LIN,Inter-Byte Space
3.449167250000000,LIN,Protected ID: 60
3.449661250000000,LIN,Inter-Byte Space
3.449997375000000,LIN,Data 0: 1
3.450491375000000,LIN,Inter-Byte Space
3.450516250000000,LIN,Data 1: 4
3.451010250000000,LIN,Inter-Byte Space
3.451035125000000,LIN,Data 2: 0
3.451529125000000,LIN,Inter-Byte Space
3.451554000000000,LIN,Data 3: 0
3.452048000000000,LIN,Inter-Byte Space
3.452072875000000,LIN,Data 4: 255
3.452566875000000,LIN,Inter-Byte Space
3.452591625000000,LIN,Data 5: 255
3.453085625000000,LIN,Inter-Byte Space
3.453110375000000,LIN,Data 6: 255
3.453604375000000,LIN,Inter-Byte Space
3.453629250000000,LIN,Data 7: 255
3.454123250000000,LIN,Inter-Byte Space
3.454148125000000,LIN,!CHK!
3.457572125000000,LIN,Header Break
3.458274125000000,LIN,Inter-Byte Space
3.458350375000000,LIN,Header Sync
3.458844375000000,LIN,Inter-Byte Space
3.459128625000000,LIN,Protected ID: 61
3.459622625000000,LIN,Inter-Byte Space
3.459924625000000,LIN,Data 0: 255
3.460418625000000,LIN,Inter-Byte Space
3.460495250000000,LIN,Data 1: 0
3.460989250000000,LIN,Inter-Byte Space
3.461065750000000,LIN,Data 2: 0
3.461559750000000,LIN,Inter-Byte Space
3.461636250000000,LIN,Data 3: 0
3.462130250000000,LIN,Inter-Byte Space
3.462206750000000,LIN,Data 4: 0
3.462700750000000,LIN,Inter-Byte Space
3.462777375000000,LIN,Data 5: 255
3.463271375000000,LIN,Inter-Byte Space
3.463347875000000,LIN,Data 6: 255
3.463841875000000,LIN,Inter-Byte Space
3.463918500000000,LIN,Data 7: 255
3.464412500000000,LIN,Inter-Byte Space
3.464489000000000,LIN,!CHK!
3.472564875000000,LIN,Header Break
3.473266875000000,LIN,Inter-Byte Space
3.473343000000000,LIN,Header Sync
3.473837000000000,LIN,Inter-Byte Space
3.474069375000000,LIN,Protected ID: 60
3.474563375000000,LIN,Inter-Byte Space
3.474951250000000,LIN,Data 0: 2
3.475445250000000,LIN,Inter-Byte Space
3.475470000000000,LIN,Data 1: 2
3.475964000000000,LIN,Inter-Byte Space
3.475988750000000,LIN,Data 2: 0
3.476482750000000,LIN,Inter-Byte Space
3.476507500000000,LIN,Data 3: 0
3.477001500000000,LIN,Inter-Byte Space
3.477026250000000,LIN,Data 4: 255
3.477520250000000,LIN,Inter-Byte Space
3.477545000000000,LIN,Data 5: 255
3.478039000000000,LIN,Inter-Byte Space
3.478063750000000,LIN,Data 6: 255
3.478557750000000,LIN,Inter-Byte Space
3.478582625000000,LIN,Data 7: 255
3.479076625000000,LIN,Inter-Byte Space
3.479101375000000,LIN,!CHK!
3.482525625000000,LIN,Header Break
3.483227625000000,LIN,Inter-Byte Space
3.483303875000000,LIN,Header Sync
3.483797875000000,LIN,Inter-Byte Space
3.484082125000000,LIN,Protected ID: 61
3.484576125000000,LIN,Inter-Byte Space
3.484825875000000,LIN,Data 0: 255
3.485319875000000,LIN,Inter-Byte Space
3.485396375000000,LIN,Data 1: 0
3.485890375000000,LIN,Inter-Byte Space
3.485967000000000,LIN,Data 2: 0
3.486461000000000,LIN,Inter-Byte Space
3.486537500000000,LIN,Data 3: 0
3.487031500000000,LIN,Inter-Byte Space
3.487108000000000,LIN,Data 4: 255
3.487602000000000,LIN,Inter-Byte Space
3.487678500000000,LIN,Data 5: 255
3.488172500000000,LIN,Inter-Byte Space
3.488249000000000,LIN,Data 6: 255
3.488743000000000,LIN,Inter-Byte Space
3.488819375000000,LIN,Data 7: 255
3.489313375000000,LIN,Inter-Byte Space
3.489389875000000,LIN,!CHK!
3.497518875000000,LIN,Header Break
3.498220875000000,LIN,Inter-Byte Space
3.498297000000000,LIN,Header Sync
3.498791000000000,LIN,Inter-Byte Space
3.499023375000000,LIN,Protected ID: 60
3.499517375000000,LIN,Inter-Byte Space
3.499905375000000,LIN,Data 0: 2
3.500399375000000,LIN,Inter-Byte Space
3.500424125000000,LIN,Data 1: 6
3.500918125000000,LIN,Inter-Byte Space
3.500943000000000,LIN,Data 2: 9
3.501437000000000,LIN,Inter-Byte Space
3.501461750000000,LIN,Data 3: 0
3.501955750000000,LIN,Inter-Byte Space
3.501980500000000,LIN,Data 4: 255
3.502474500000000,LIN,Inter-Byte Space
3.502499500000000,LIN,Data 5: 255
3.502993500000000,LIN,Inter-Byte Space
3.503018250000000,LIN,Data 6: 255
3.503512250000000,LIN,Inter-Byte Space
3.503537250000000,LIN,Data 7: 255
3.504031250000000,LIN,Inter-Byte Space
3.504056125000000,LIN,!CHK!
3.507428500000000,LIN,Header Break
3.508130500000000,LIN,Inter-Byte Space
3.508206625000000,LIN,Header Sync
3.508700625000000,LIN,Inter-Byte Space
3.508777375000000,LIN,Protected ID: 61
3.509271375000000,LIN,Inter-Byte Space
3.509469375000000,LIN,Data 0: 9
3.509963375000000,LIN,Inter-Byte Space
3.510040000000000,LIN,Data 1: 1
3.510534000000000,LIN,Inter-Byte Space
3.510610500000000,LIN,Data 2: 255
3.511104500000000,LIN,Inter-Byte Space
3.511181125000000,LIN,Data 3: 255
3.511675125000000,LIN,Inter-Byte Space
3.511751625000000,LIN,Data 4: 255
