Time [s], Analyzer Name, Decoded Protocol Result
0.638963875000000,LIN,Header Break
0.639665875000000,LIN,Inter-Byte Space
0.639742000000000,LIN,Header Sync
0.640236000000000,LIN,Inter-Byte Space
0.640312500000000,LIN,Protected ID: 60
0.640806500000000,LIN,Inter-Byte Space
0.641142375000000,LIN,Data 0: 255
0.641636375000000,LIN,Inter-Byte Space
0.641661000000000,LIN,Data 1: 7
0.642155000000000,LIN,Inter-Byte Space
0.642179625000000,LIN,Data 2: 255
0.642673625000000,LIN,Inter-Byte Space
0.642698250000000,LIN,Data 3: 255
0.643192250000000,LIN,Inter-Byte Space
0.643216875000000,LIN,Data 4: 255
0.643710875000000,LIN,Inter-Byte Space
0.643735500000000,LIN,Data 5: 255
0.644229500000000,LIN,Inter-Byte Space
0.644254250000000,LIN,Data 6: 255
0.644748250000000,LIN,Inter-Byte Space
0.644772875000000,LIN,Data 7: 255
0.645266875000000,LIN,Inter-Byte Space
0.645291750000000,LIN,!CHK!
0.648922500000000,LIN,Header Break
0.649624500000000,LIN,Inter-Byte Space
0.649700500000000,LIN,Header Sync
0.650194500000000,LIN,Inter-Byte Space
0.650271000000000,LIN,Protected ID: 61
0.663965000000000,LIN,Header Break
0.664637000000000,LIN,Inter-Byte Space
0.664743000000000,LIN,Header Sync
0.665237000000000,LIN,Inter-Byte Space
0.665469250000000,LIN,Protected ID: 60
0.665963250000000,LIN,Inter-Byte Space
0.666351125000000,LIN,Data 0: 255
0.666845125000000,LIN,Inter-Byte Space
0.666870000000000,LIN,Data 1: 7
0.667364000000000,LIN,Inter-Byte Space
0.667388750000000,LIN,Data 2: 255
0.667882750000000,LIN,Inter-Byte Space
0.667907625000000,LIN,Data 3: 255
0.668401625000000,LIN,Inter-Byte Space
0.668426375000000,LIN,Data 4: 255
0.668920375000000,LIN,Inter-Byte Space
0.668945125000000,LIN,Data 5: 255
0.669439125000000,LIN,Inter-Byte Space
0.669463875000000,LIN,Data 6: 255
0.669957875000000,LIN,Inter-Byte Space
0.669982750000000,LIN,Data 7: 255
0.670476750000000,LIN,Inter-Byte Space
0.670501625000000,LIN,!CHK!
0.673874250000000,LIN,Header Break
0.674576250000000,LIN,Inter-Byte Space
0.674652500000000,LIN,Header Sync
0.675146500000000,LIN,Inter-Byte Space
0.675223250000000,LIN,Protected ID: 61
0.688868625000000,LIN,Header Break
0.689540750000000,LIN,Inter-Byte Space
0.689646750000000,LIN,Header Sync
0.690140750000000,LIN,Inter-Byte Space
0.690425000000000,LIN,Protected ID: 60
0.690919000000000,LIN,Inter-Byte Space
0.691255000000000,LIN,Data 0: 255
0.691749000000000,LIN,Inter-Byte Space
0.691773875000000,LIN,Data 1: 1
0.692267875000000,LIN,Inter-Byte Space
0.692292625000000,LIN,Data 2: 7
0.692786625000000,LIN,Inter-Byte Space
0.692811375000000,LIN,Data 3: 255
0.693305375000000,LIN,Inter-Byte Space
0.693330125000000,LIN,Data 4: 255
0.693824125000000,LIN,Inter-Byte Space
0.693848875000000,LIN,Data 5: 255
0.694342875000000,LIN,Inter-Byte Space
0.694367625000000,LIN,Data 6: 255
0.694861625000000,LIN,Inter-Byte Space
0.694886375000000,LIN,Data 7: 255
0.695380375000000,LIN,Inter-Byte Space
0.695405125000000,LIN,!CHK!
0.698829750000000,LIN,Header Break
0.699531750000000,LIN,Inter-Byte Space
0.699608125000000,LIN,Header Sync
0.700102125000000,LIN,Inter-Byte Space
0.700127125000000,LIN,Protected ID: 61
0.713826500000000,LIN,Header Break
0.714498875000000,LIN,Inter-Byte Space
0.714604875000000,LIN,Header Sync
0.715098875000000,LIN,Inter-Byte Space
0.715331375000000,LIN,Protected ID: 60
0.715825375000000,LIN,Inter-Byte Space
0.716213375000000,LIN,Data 0: 208
0.716707375000000,LIN,Inter-Byte Space
0.716732250000000,LIN,Data 1: 2
0.717226250000000,LIN,Inter-Byte Space
0.717251250000000,LIN,Data 2: 7
0.717745250000000,LIN,Inter-Byte Space
0.717770125000000,LIN,Data 3: 255
0.718264125000000,LIN,Inter-Byte Space
0.718289125000000,LIN,Data 4: 255
0.718783125000000,LIN,Inter-Byte Space
0.718808000000000,LIN,Data 5: 255
0.719302000000000,LIN,Inter-Byte Space
0.719326875000000,LIN,Data 6: 255
0.719820875000000,LIN,Inter-Byte Space
0.719845750000000,LIN,Data 7: 255
0.720339750000000,LIN,Inter-Byte Space
0.720364625000000,LIN,!CHK!
0.723789000000000,LIN,Header Break
0.724491000000000,LIN,Inter-Byte Space
0.724567250000000,LIN,Header Sync
0.725061250000000,LIN,Inter-Byte Space
0.725345500000000,LIN,Protected ID: 61
0.725839500000000,LIN,Inter-Byte Space
0.726050125000000,LIN,Data 0: 254
0.738781625000000,LIN,Header Break
0.739453875000000,LIN,Inter-Byte Space
0.739559875000000,LIN,Header Sync
0.740053875000000,LIN,Inter-Byte Space
0.740286250000000,LIN,Protected ID: 60
0.740780250000000,LIN,Inter-Byte Space
0.741168250000000,LIN,Data 0: 0
0.741662250000000,LIN,Inter-Byte Space
0.741687125000000,LIN,Data 1: 2
0.742181125000000,LIN,Inter-Byte Space
0.742206000000000,LIN,Data 2: 7
0.742700000000000,LIN,Inter-Byte Space
0.742724750000000,LIN,Data 3: 255
0.743218750000000,LIN,Inter-Byte Space
0.743243750000000,LIN,Data 4: 255
0.743737750000000,LIN,Inter-Byte Space
0.743762625000000,LIN,Data 5: 255
0.744256625000000,LIN,Inter-Byte Space
0.744281375000000,LIN,Data 6: 255
0.744775375000000,LIN,Inter-Byte Space
0.744800250000000,LIN,Data 7: 255
0.745294250000000,LIN,Inter-Byte Space
0.745319125000000,LIN,!CHK!
0.748691625000000,LIN,Header Break
0.749393625000000,LIN,Inter-Byte Space
0.749469875000000,LIN,Header Sync
0.749963875000000,LIN,Inter-Byte Space
0.750040625000000,LIN,Protected ID: 61
0.763738250000000,LIN,Header Break
0.764410375000000,LIN,Inter-Byte Space
0.764516375000000,LIN,Header Sync
0.765010375000000,LIN,Inter-Byte Space
0.765242625000000,LIN,Protected ID: 60
0.765736625000000,LIN,Inter-Byte Space
0.766124625000000,LIN,Data 0: 1
0.766618625000000,LIN,Inter-Byte Space
0.766643500000000,LIN,Data 1: 2
0.767137500000000,LIN,Inter-Byte Space
0.767162375000000,LIN,Data 2: 7
0.767656375000000,LIN,Inter-Byte Space
0.767681125000000,LIN,Data 3: 255
0.768175125000000,LIN,Inter-Byte Space
0.768200000000000,LIN,Data 4: 255
0.768694000000000,LIN,Inter-Byte Space
0.768718750000000,LIN,Data 5: 255
0.769212750000000,LIN,Inter-Byte Space
0.769237500000000,LIN,Data 6: 255
0.769731500000000,LIN,Inter-Byte Space
0.769756375000000,LIN,Data 7: 255
0.770250375000000,LIN,Inter-Byte Space
0.770275125000000,LIN,!CHK!
0.773647250000000,LIN,Header Break
0.774349250000000,LIN,Inter-Byte Space
0.774425375000000,LIN,Header Sync
0.774919375000000,LIN,Inter-Byte Space
0.774996125000000,LIN,Protected ID: 61
0.788640625000000,LIN,Header Break
0.789312750000000,LIN,Inter-Byte Space
0.789418750000000,LIN,Header Sync
0.789912750000000,LIN,Inter-Byte Space
0.790197000000000,LIN,Protected ID: 60
0.790691000000000,LIN,Inter-Byte Space
0.791027125000000,LIN,Data 0: 2
0.791521125000000,LIN,Inter-Byte Space
0.791545875000000,LIN,Data 1: 2
0.792039875000000,LIN,Inter-Byte Space
0.792064875000000,LIN,Data 2: 7
0.792558875000000,LIN,Inter-Byte Space
0.792583750000000,LIN,Data 3: 255
0.793077750000000,LIN,Inter-Byte Space
0.793102625000000,LIN,Data 4: 255
0.793596625000000,LIN,Inter-Byte Space
0.793621500000000,LIN,Data 5: 255
0.794115500000000,LIN,Inter-Byte Space
0.794140375000000,LIN,Data 6: 255
0.794634375000000,LIN,Inter-Byte Space
0.794659250000000,LIN,Data 7: 255
0.795153250000000,LIN,Inter-Byte Space
0.795178000000000,LIN,!CHK!
0.798601875000000,LIN,Header Break
0.799303875000000,LIN,Inter-Byte Space
0.799380000000000,LIN,Header Sync
0.799874000000000,LIN,Inter-Byte Space
0.799950625000000,LIN,Protected ID: 61
0.813594625000000,LIN,Header Break
0.814266875000000,LIN,Inter-Byte Space
0.814372875000000,LIN,Header Sync
0.814866875000000,LIN,Inter-Byte Space
0.815151250000000,LIN,Protected ID: 60
0.815645250000000,LIN,Inter-Byte Space
0.815981500000000,LIN,Data 0: 3
0.816475500000000,LIN,Inter-Byte Space
0.816500375000000,LIN,Data 1: 2
0.816994375000000,LIN,Inter-Byte Space
0.817019375000000,LIN,Data 2: 7
0.817513375000000,LIN,Inter-Byte Space
0.817538250000000,LIN,Data 3: 255
0.818032250000000,LIN,Inter-Byte Space
0.818057000000000,LIN,Data 4: 255
0.818551000000000,LIN,Inter-Byte Space
0.818575875000000,LIN,Data 5: 255
0.819069875000000,LIN,Inter-Byte Space
0.819094750000000,LIN,Data 6: 255
0.819588750000000,LIN,Inter-Byte Space
0.819613500000000,LIN,Data 7: 255
0.820107500000000,LIN,Inter-Byte Space
0.820132250000000,LIN,!CHK!
0.823556250000000,LIN,Header Break
0.824258250000000,LIN,Inter-Byte Space
0.824334375000000,LIN,Header Sync
0.824828375000000,LIN,Inter-Byte Space
0.825112500000000,LIN,Protected ID: 61
0.825606500000000,LIN,Inter-Byte Space
0.825856250000000,LIN,Data 0: 255
0.826350250000000,LIN,Inter-Byte Space
0.826426500000000,LIN,Data 1: 0
0.826920500000000,LIN,Inter-Byte Space
0.826996875000000,LIN,Data 2: 0
0.827490875000000,LIN,Inter-Byte Space
0.827567250000000,LIN,Data 3: 0
0.828061250000000,LIN,Inter-Byte Space
0.828137500000000,LIN,Data 4: 255
0.828631500000000,LIN,Inter-Byte Space
0.828707875000000,LIN,Data 5: 255
0.829201875000000,LIN,Inter-Byte Space
0.829278000000000,LIN,Data 6: 255
0.829772000000000,LIN,Inter-Byte Space
0.829848375000000,LIN,Data 7: 255
0.830342375000000,LIN,Inter-Byte Space
0.830418625000000,LIN,!CHK!
0.838551500000000,LIN,Header Break
0.839253500000000,LIN,Inter-Byte Space
0.839329875000000,LIN,Header Sync
0.839823875000000,LIN,Inter-Byte Space
0.840056375000000,LIN,Protected ID: 60
0.840550375000000,LIN,Inter-Byte Space
0.840938500000000,LIN,Data 0: 3
0.841432500000000,LIN,Inter-Byte Space
0.841457375000000,LIN,Data 1: 6
0.841951375000000,LIN,Inter-Byte Space
0.841976250000000,LIN,Data 2: 9
0.842470250000000,LIN,Inter-Byte Space
0.842495000000000,LIN,Data 3: 0
0.842989000000000,LIN,Inter-Byte Space
0.843013750000000,LIN,Data 4: 255
0.843507750000000,LIN,Inter-Byte Space
0.843532500000000,LIN,Data 5: 255
0.844026500000000,LIN,Inter-Byte Space
0.844051500000000,LIN,Data 6: 255
0.844545500000000,LIN,Inter-Byte Space
0.844570250000000,LIN,Data 7: 255
0.845064250000000,LIN,Inter-Byte Space
0.845089125000000,LIN,!CHK!
0.848513125000000,LIN,Header Break
0.849215125000000,LIN,Inter-Byte Space
0.849291375000000,LIN,Header Sync
0.849785375000000,LIN,Inter-Byte Space
0.850069625000000,LIN,Protected ID: 61
0.850563625000000,LIN,Inter-Byte Space
0.850761500000000,LIN,Data 0: 9
0.851255500000000,LIN,Inter-Byte Space
0.851331875000000,LIN,Data 1: 1
0.851825875000000,LIN,Inter-Byte Space
0.851902250000000,LIN,Data 2: 255
0.852396250000000,LIN,Inter-Byte Space
0.852472500000000,LIN,Data 3: 255
0.852966500000000,LIN,Inter-Byte Space
0.853042875000000,LIN,Data 4: 255
0.853536875000000,LIN,Inter-Byte Space
0.853613250000000,LIN,Data 5: 255
0.854107250000000,LIN,Inter-Byte Space
0.854183500000000,LIN,Data 6: 255
0.854677500000000,LIN,Inter-Byte Space
0.854753750000000,LIN,Data 7: 255
0.855247750000000,LIN,Inter-Byte Space
0.855324250000000,LIN,!CHK!
0.863508625000000,LIN,Header Break
0.864210625000000,LIN,Inter-Byte Space
0.864287000000000,LIN,Header Sync
0.864781000000000,LIN,Inter-Byte Space
0.865013375000000,LIN,Protected ID: 60
0.865507375000000,LIN,Inter-Byte Space
0.865895500000000,LIN,Data 0: 3
0.866389500000000,LIN,Inter-Byte Space
0.866414375000000,LIN,Data 1: 6
0.866908375000000,LIN,Inter-Byte Space
0.866933250000000,LIN,Data 2: 12
0.867427250000000,LIN,Inter-Byte Space
0.867452125000000,LIN,Data 3: 0
0.867946125000000,LIN,Inter-Byte Space
0.867971000000000,LIN,Data 4: 255
0.868465000000000,LIN,Inter-Byte Space
0.868489875000000,LIN,Data 5: 255
0.868983875000000,LIN,Inter-Byte Space
0.869008750000000,LIN,Data 6: 255
0.869502750000000,LIN,Inter-Byte Space
0.869527625000000,LIN,Data 7: 255
0.870021625000000,LIN,Inter-Byte Space
0.870046375000000,LIN,!CHK!
0.873418875000000,LIN,Header Break
0.874120875000000,LIN,Inter-Byte Space
0.874197000000000,LIN,Header Sync
0.874691000000000,LIN,Inter-Byte Space
0.874767625000000,LIN,Protected ID: 61
0.875261625000000,LIN,Inter-Byte Space
0.875511250000000,LIN,Data 0: 12
0.876005250000000,LIN,Inter-Byte Space
0.876081625000000,LIN,Data 1: 26
0.876575625000000,LIN,Inter-Byte Space
0.876651875000000,LIN,Data 2: 255
0.877145875000000,LIN,Inter-Byte Space
0.877222250000000,LIN,Data 3: 255
0.877716250000000,LIN,Inter-Byte Space
0.877792625000000,LIN,Data 4: 255
0.878286625000000,LIN,Inter-Byte Space
0.878363000000000,LIN,Data 5: 255
0.878857000000000,LIN,Inter-Byte Space
0.878933375000000,LIN,Data 6: 255
0.879427375000000,LIN,Inter-Byte Space
0.879503750000000,LIN,Data 7: 255
0.879997750000000,LIN,Inter-Byte Space
0.880074125000000,LIN,!CHK!
0.888413250000000,LIN,Header Break
0.889115250000000,LIN,Inter-Byte Space
0.889191250000000,LIN,Header Sync
0.889685250000000,LIN,Inter-Byte Space
0.889969500000000,LIN,Protected ID: 60
0.890463500000000,LIN,Inter-Byte Space
0.890851500000000,LIN,Data 0: 3
0.891345500000000,LIN,Inter-Byte Space
0.891370375000000,LIN,Data 1: 6
0.891864375000000,LIN,Inter-Byte Space
0.891889125000000,LIN,Data 2: 13
0.892383125000000,LIN,Inter-Byte Space
0.892408000000000,LIN,Data 3: 0
0.892902000000000,LIN,Inter-Byte Space
0.892926875000000,LIN,Data 4: 255
0.893420875000000,LIN,Inter-Byte Space
0.893445625000000,LIN,Data 5: 255
0.893939625000000,LIN,Inter-Byte Space
0.893964500000000,LIN,Data 6: 255
0.894458500000000,LIN,Inter-Byte Space
0.894483375000000,LIN,Data 7: 255
0.894977375000000,LIN,Inter-Byte Space
0.895002250000000,LIN,!CHK!
0.898374750000000,LIN,Header Break
0.899076750000000,LIN,Inter-Byte Space
0.899153000000000,LIN,Header Sync
0.899647000000000,LIN,Inter-Byte Space
0.899723750000000,LIN,Protected ID: 61
0.900217750000000,LIN,Inter-Byte Space
0.900467375000000,LIN,Data 0: 13
0.900961375000000,LIN,Inter-Byte Space
0.901037750000000,LIN,Data 1: 198
0.901531750000000,LIN,Inter-Byte Space
0.901608000000000,LIN,Data 2: 255
0.902102000000000,LIN,Inter-Byte Space
0.902178375000000,LIN,Data 3: 255
0.902672375000000,LIN,Inter-Byte Space
0.902748750000000,LIN,Data 4: 255
0.903242750000000,LIN,Inter-Byte Space
0.903319125000000,LIN,Data 5: 255
0.903813125000000,LIN,Inter-Byte Space
0.903889500000000,LIN,Data 6: 255
0.904383500000000,LIN,Inter-Byte Space
0.904459875000000,LIN,Data 7: 255
0.904953875000000,LIN,Inter-Byte Space
0.905030375000000,LIN,!CHK!
0.913369500000000,LIN,Header Break
0.914071500000000,LIN,Inter-Byte Space
0.914147625000000,LIN,Header Sync
0.914641625000000,LIN,Inter-Byte Space
0.914925750000000,LIN,Protected ID: 60
0.915419750000000,LIN,Inter-Byte Space
0.915755750000000,LIN,Data 0: 3
0.916249750000000,LIN,Inter-Byte Space
0.916274500000000,LIN,Data 1: 6
0.916768500000000,LIN,Inter-Byte Space
0.916793250000000,LIN,Data 2: 10
0.917287250000000,LIN,Inter-Byte Space
0.917312000000000,LIN,Data 3: 0
0.917806000000000,LIN,Inter-Byte Space
0.917830875000000,LIN,Data 4: 255
0.918324875000000,LIN,Inter-Byte Space
0.918349500000000,LIN,Data 5: 255
0.918843500000000,LIN,Inter-Byte Space
0.918868375000000,LIN,Data 6: 255
0.919362375000000,LIN,Inter-Byte Space
0.919387250000000,LIN,Data 7: 255
0.919881250000000,LIN,Inter-Byte Space
0.919906125000000,LIN,!CHK!
0.923330750000000,LIN,Header Break
0.924032750000000,LIN,Inter-Byte Space
0.924109125000000,LIN,Header Sync
0.924603125000000,LIN,Inter-Byte Space
0.924887500000000,LIN,Protected ID: 61
0.925381500000000,LIN,Inter-Byte Space
0.925579125000000,LIN,Data 0: 10
0.926073125000000,LIN,Inter-Byte Space
0.926149500000000,LIN,Data 1: 0
0.926643500000000,LIN,Inter-Byte Space
0.926719875000000,LIN,Data 2: 255
0.927213875000000,LIN,Inter-Byte Space
0.927290250000000,LIN,Data 3: 255
0.927784250000000,LIN,Inter-Byte Space
0.927860625000000,LIN,Data 4: 255
0.928354625000000,LIN,Inter-Byte Space
0.928431125000000,LIN,Data 5: 255
0.928925125000000,LIN,Inter-Byte Space
0.929001375000000,LIN,Data 6: 255
0.929495375000000,LIN,Inter-Byte Space
0.929571750000000,LIN,Data 7: 255
0.930065750000000,LIN,Inter-Byte Space
0.930142000000000,LIN,!CHK!
0.938325500000000,LIN,Header Break
0.939027500000000,LIN,Inter-Byte Space
0.939103750000000,LIN,Header Sync
0.939597750000000,LIN,Inter-Byte Space
0.939830125000000,LIN,Protected ID: 60
0.940324125000000,LIN,Inter-Byte Space
0.940712125000000,LIN,Data 0: 3
0.941206125000000,LIN,Inter-Byte Space
0.941230875000000,LIN,Data 1: 6
0.941724875000000,LIN,Inter-Byte Space
0.941749750000000,LIN,Data 2: 11
0.942243750000000,LIN,Inter-Byte Space
0.942268625000000,LIN,Data 3: 0
0.942762625000000,LIN,Inter-Byte Space
0.942787375000000,LIN,Data 4: 255
0.943281375000000,LIN,Inter-Byte Space
0.943306125000000,LIN,Data 5: 255
0.943800125000000,LIN,Inter-Byte Space
0.943824750000000,LIN,Data 6: 255
0.944318750000000,LIN,Inter-Byte Space
0.944343500000000,LIN,Data 7: 255
0.944837500000000,LIN,Inter-Byte Space
0.944862250000000,LIN,!CHK!
0.948286250000000,LIN,Header Break
0.948988250000000,LIN,Inter-Byte Space
0.949064625000000,LIN,Header Sync
0.949558625000000,LIN,Inter-Byte Space
0.949842875000000,LIN,Protected ID: 61
0.950336875000000,LIN,Inter-Byte Space
0.950586250000000,LIN,Data 0: 11
0.951080250000000,LIN,Inter-Byte Space
0.951156750000000,LIN,Data 1: 95
0.951650750000000,LIN,Inter-Byte Space
0.951727125000000,LIN,Data 2: 255
0.952221125000000,LIN,Inter-Byte Space
0.952297500000000,LIN,Data 3: 255
0.952791500000000,LIN,Inter-Byte Space
0.952867875000000,LIN,Data 4: 255
0.953361875000000,LIN,Inter-Byte Space
0.953438125000000,LIN,Data 5: 255
0.953932125000000,LIN,Inter-Byte Space
0.954008500000000,LIN,Data 6: 255
0.954502500000000,LIN,Inter-Byte Space
0.954578750000000,LIN,Data 7: 255
0.955072750000000,LIN,Inter-Byte Space
0.955149125000000,LIN,!CHK!
0.963281500000000,LIN,Header Break
0.963983500000000,LIN,Inter-Byte Space
0.964059875000000,LIN,Header Sync
0.964553875000000,LIN,Inter-Byte Space
0.964786500000000,LIN,Protected ID: 60
0.965280500000000,LIN,Inter-Byte Space
0.965668625000000,LIN,Data 0: 3
0.966162625000000,LIN,Inter-Byte Space
0.966187500000000,LIN,Data 1: 4
0.966681500000000,LIN,Inter-Byte Space
0.966706375000000,LIN,Data 2: 0
0.967200375000000,LIN,Inter-Byte Space
0.967225375000000,LIN,Data 3: 0
0.967719375000000,LIN,Inter-Byte Space
0.967744250000000,LIN,Data 4: 255
0.968238250000000,LIN,Inter-Byte Space
0.968263250000000,LIN,Data 5: 255
0.968757250000000,LIN,Inter-Byte Space
0.968782125000000,LIN,Data 6: 255
0.969276125000000,LIN,Inter-Byte Space
0.969301000000000,LIN,Data 7: 255
0.969795000000000,LIN,Inter-Byte Space
0.969819875000000,LIN,!CHK!
0.973192500000000,LIN,Header Break
0.973894500000000,LIN,Inter-Byte Space
0.973970875000000,LIN,Header Sync
0.974464875000000,LIN,Inter-Byte Space
0.974541625000000,LIN,Protected ID: 61
0.975035625000000,LIN,Inter-Byte Space
0.975233750000000,LIN,Data 0: 255
0.975727750000000,LIN,Inter-Byte Space
0.975804125000000,LIN,Data 1: 0
0.976298125000000,LIN,Inter-Byte Space
0.976374500000000,LIN,Data 2: 0
0.976868500000000,LIN,Inter-Byte Space
0.976944875000000,LIN,Data 3: 0
0.977438875000000,LIN,Inter-Byte Space
0.977515250000000,LIN,Data 4: 0
0.978009250000000,LIN,Inter-Byte Space
0.978085625000000,LIN,Data 5: 255
0.978579625000000,LIN,Inter-Byte Space
0.978656000000000,LIN,Data 6: 255
0.979150000000000,LIN,Inter-Byte Space
0.979226375000000,LIN,Data 7: 255
0.979720375000000,LIN,Inter-Byte Space
0.979796750000000,LIN,!CHK!
0.988239000000000,LIN,Header Break
0.988941000000000,LIN,Inter-Byte Space
0.989017375000000,LIN,Header Sync
0.989511375000000,LIN,Inter-Byte Space
0.989743875000000,LIN,Protected ID: 60
0.990237875000000,LIN,Inter-Byte Space
0.990625875000000,LIN,Data 0: 4
0.991119875000000,LIN,Inter-Byte Space
0.991144750000000,LIN,Data 1: 2
0.991638750000000,LIN,Inter-Byte Space
0.991663625000000,LIN,Data 2: 0
0.992157625000000,LIN,Inter-Byte Space
0.992182500000000,LIN,Data 3: 0
0.992676500000000,LIN,Inter-Byte Space
0.992701375000000,LIN,Data 4: 255
0.993195375000000,LIN,Inter-Byte Space
0.993220250000000,LIN,Data 5: 255
0.993714250000000,LIN,Inter-Byte Space
0.993739250000000,LIN,Data 6: 255
0.994233250000000,LIN,Inter-Byte Space
0.994258000000000,LIN,Data 7: 255
0.994752000000000,LIN,Inter-Byte Space
0.994776875000000,LIN,!CHK!
0.998149625000000,LIN,Header Break
0.998851625000000,LIN,Inter-Byte Space
0.998928000000000,LIN,Header Sync
0.999422000000000,LIN,Inter-Byte Space
0.999498625000000,LIN,Protected ID: 61
1.013142750000000,LIN,Header Break
1.013814875000000,LIN,Inter-Byte Space
