Time [s], Analyzer Name, Decoded Protocol Result
0.000000000000000,LIN,Header Break
0.000702000000000,LIN,Inter-Byte Space
0.000778125000000,LIN,Header Sync
0.001272125000000,LIN,Inter-Byte Space
0.001556375000000,LIN,Protected ID: 17
0.002050375000000,LIN,Inter-Byte Space
0.002386500000000,LIN,Data 0: 0
0.002880500000000,LIN,Inter-Byte Space
0.002905250000000,LIN,Data 1: 0
0.003399250000000,LIN,Inter-Byte Space
0.003424125000000,LIN,Data 2: 0
0.003918125000000,LIN,Inter-Byte Space
0.003942875000000,LIN,Checksum: 238
0.004980500000000,LIN,Header Break
0.005652750000000,LIN,Inter-Byte Space
0.005758625000000,LIN,Header Sync
0.006252625000000,LIN,Inter-Byte Space
0.006536750000000,LIN,Protected ID: 8
0.007030750000000,LIN,Inter-Byte Space
0.007537875000000,LIN,Data 0: 49
0.008031875000000,LIN,Inter-Byte Space
0.008107375000000,LIN,Data 1: 2
0.008601375000000,LIN,Inter-Byte Space
0.008676875000000,LIN,Data 2: 96
0.009170875000000,LIN,Inter-Byte Space
0.009246250000000,LIN,Checksum: 100
0.009960375000000,LIN,Header Break
0.010632500000000,LIN,Inter-Byte Space
0.010738375000000,LIN,Header Sync
0.011232375000000,LIN,Inter-Byte Space
0.011516250000000,LIN,Protected ID: 9
0.012010250000000,LIN,Inter-Byte Space
0.012414000000000,LIN,Data 0: 58
0.012908000000000,LIN,Inter-Byte Space
0.012983750000000,LIN,Data 1: 2
0.013477750000000,LIN,Inter-Byte Space
0.013553375000000,LIN,Data 2: 96
0.014047375000000,LIN,Inter-Byte Space
0.014123000000000,LIN,Checksum: 26
0.014939375000000,LIN,Header Break
0.015611375000000,LIN,Inter-Byte Space
0.015717375000000,LIN,Header Sync
0.016211375000000,LIN,Inter-Byte Space
0.016236000000000,LIN,Protected ID: 16
0.019918750000000,LIN,Header Break
0.020590750000000,LIN,Inter-Byte Space
0.020696625000000,LIN,Header Sync
0.021190625000000,LIN,Inter-Byte Space
0.021267125000000,LIN,Protected ID: 16
0.024950250000000,LIN,Header Break
0.025622375000000,LIN,Inter-Byte Space
0.025728375000000,LIN,Header Sync
0.026222375000000,LIN,Inter-Byte Space
0.026454625000000,LIN,Protected ID: 16
0.029930500000000,LIN,Header Break
0.030602750000000,LIN,Inter-Byte Space
0.030708750000000,LIN,Header Sync
0.031202750000000,LIN,Inter-Byte Space
0.031435125000000,LIN,Protected ID: 16
0.034910875000000,LIN,Header Break
0.035583125000000,LIN,Inter-Byte Space
0.035689125000000,LIN,Header Sync
0.036183125000000,LIN,Inter-Byte Space
0.036467125000000,LIN,Protected ID: 16
0.039890250000000,LIN,Header Break
0.040562250000000,LIN,Inter-Byte Space
0.040668125000000,LIN,Header Sync
0.041162125000000,LIN,Inter-Byte Space
0.041446125000000,LIN,Protected ID: 16
0.044869750000000,LIN,Header Break
0.045541875000000,LIN,Inter-Byte Space
0.045647750000000,LIN,Header Sync
0.046141750000000,LIN,Inter-Byte Space
0.046425750000000,LIN,Protected ID: 1
0.049900375000000,LIN,Header Break
0.050572500000000,LIN,Inter-Byte Space
0.050678375000000,LIN,Header Sync
0.051172375000000,LIN,Inter-Byte Space
0.051404625000000,LIN,Protected ID: 18
0.051898625000000,LIN,Inter-Byte Space
0.052234375000000,LIN,Data 0: 58
0.052728375000000,LIN,Inter-Byte Space
0.052753125000000,LIN,Data 1: 2
0.053247125000000,LIN,Inter-Byte Space
0.053271875000000,LIN,Data 2: 252
0.053765875000000,LIN,Inter-Byte Space
0.053790500000000,LIN,Data 3: 52
0.099750125000000,LIN,Header Break
0.100422250000000,LIN,Inter-Byte Space
0.100528250000000,LIN,Header Sync
0.101022250000000,LIN,Inter-Byte Space
0.101306375000000,LIN,Protected ID: 17
0.101800375000000,LIN,Inter-Byte Space
0.102136375000000,LIN,Data 0: 0
0.102630375000000,LIN,Inter-Byte Space
0.102655250000000,LIN,Data 1: 0
0.103149250000000,LIN,Inter-Byte Space
0.103174000000000,LIN,Data 2: 0
0.103668000000000,LIN,Inter-Byte Space
0.103692875000000,LIN,Checksum: 238
0.104730500000000,LIN,Header Break
0.105402750000000,LIN,Inter-Byte Space
0.105508625000000,LIN,Header Sync
0.106002625000000,LIN,Inter-Byte Space
0.106286750000000,LIN,Protected ID: 8
0.106780750000000,LIN,Inter-Byte Space
0.107287375000000,LIN,Data 0: 49
0.107781375000000,LIN,Inter-Byte Space
0.107856625000000,LIN,Data 1: 2
0.108350625000000,LIN,Inter-Byte Space
0.108426000000000,LIN,Data 2: 96
0.108920000000000,LIN,Inter-Byte Space
0.108995500000000,LIN,Checksum: 100
0.109710375000000,LIN,Header Break
0.110382375000000,LIN,Inter-Byte Space
0.110488375000000,LIN,Header Sync
0.110982375000000,LIN,Inter-Byte Space
0.111266250000000,LIN,Protected ID: 9
0.111760250000000,LIN,Inter-Byte Space
0.112008875000000,LIN,Data 0: 58
0.112502875000000,LIN,Inter-Byte Space
0.112578500000000,LIN,Data 1: 2
0.113072500000000,LIN,Inter-Byte Space
0.113148125000000,LIN,Data 2: 96
0.113642125000000,LIN,Inter-Byte Space
0.113717625000000,LIN,Checksum: 26
0.114689875000000,LIN,Header Break
0.115362125000000,LIN,Inter-Byte Space
0.115468000000000,LIN,Header Sync
0.115962000000000,LIN,Inter-Byte Space
0.115986750000000,LIN,Protected ID: 16
0.119722125000000,LIN,Header Break
0.120394250000000,LIN,Inter-Byte Space
0.120500250000000,LIN,Header Sync
0.120994250000000,LIN,Inter-Byte Space
0.121226500000000,LIN,Protected ID: 16
0.124702375000000,LIN,Header Break
0.125374625000000,LIN,Inter-Byte Space
0.125480500000000,LIN,Header Sync
0.125974500000000,LIN,Inter-Byte Space
0.126206875000000,LIN,Protected ID: 16
0.129682875000000,LIN,Header Break
0.130355125000000,LIN,Inter-Byte Space
0.130461125000000,LIN,Header Sync
0.130955125000000,LIN,Inter-Byte Space
0.131239375000000,LIN,Protected ID: 16
0.134663250000000,LIN,Header Break
0.135335250000000,LIN,Inter-Byte Space
0.135441125000000,LIN,Header Sync
0.135935125000000,LIN,Inter-Byte Space
0.136219250000000,LIN,Protected ID: 16
0.139642625000000,LIN,Header Break
0.140314750000000,LIN,Inter-Byte Space
0.140420625000000,LIN,Header Sync
0.140914625000000,LIN,Inter-Byte Space
0.141198625000000,LIN,Protected ID: 16
0.144622125000000,LIN,Header Break
0.145294375000000,LIN,Inter-Byte Space
0.145400250000000,LIN,Header Sync
0.145894250000000,LIN,Inter-Byte Space
0.145919000000000,LIN,Protected ID: 1
0.149654375000000,LIN,Header Break
0.150326500000000,LIN,Inter-Byte Space
0.150432500000000,LIN,Header Sync
0.150926500000000,LIN,Inter-Byte Space
0.151158875000000,LIN,Protected ID: 18
0.151652875000000,LIN,Inter-Byte Space
0.151989000000000,LIN,Data 0: 58
0.152483000000000,LIN,Inter-Byte Space
0.152507875000000,LIN,Data 1: 2
0.153001875000000,LIN,Inter-Byte Space
0.153026750000000,LIN,Data 2: 252
0.153520750000000,LIN,Inter-Byte Space
0.153545500000000,LIN,Data 3: 52
0.199514125000000,LIN,Header Break
0.200186375000000,LIN,Inter-Byte Space
0.200292375000000,LIN,Header Sync
0.200786375000000,LIN,Inter-Byte Space
0.201070625000000,LIN,Protected ID: 17
0.201564625000000,LIN,Inter-Byte Space
0.201900750000000,LIN,Data 0: 0
0.202394750000000,LIN,Inter-Byte Space
0.202419625000000,LIN,Data 1: 0
0.202913625000000,LIN,Inter-Byte Space
0.202938500000000,LIN,Data 2: 0
0.203432500000000,LIN,Inter-Byte Space
0.203457375000000,LIN,Checksum: 238
0.204495000000000,LIN,Header Break
0.205167375000000,LIN,Inter-Byte Space
0.205273375000000,LIN,Header Sync
0.205767375000000,LIN,Inter-Byte Space
0.206051625000000,LIN,Protected ID: 8
0.206545625000000,LIN,Inter-Byte Space
0.206845250000000,LIN,Data 0: 49
0.207339250000000,LIN,Inter-Byte Space
0.207414625000000,LIN,Data 1: 2
0.207908625000000,LIN,Inter-Byte Space
0.207984000000000,LIN,Data 2: 96
0.208478000000000,LIN,Inter-Byte Space
0.208553375000000,LIN,Checksum: 100
0.209475875000000,LIN,Header Break
0.210148250000000,LIN,Inter-Byte Space
0.210254250000000,LIN,Header Sync
0.210748250000000,LIN,Inter-Byte Space
0.210773125000000,LIN,Protected ID: 9
0.211267125000000,LIN,Inter-Byte Space
0.211567750000000,LIN,Data 0: 58
0.212061750000000,LIN,Inter-Byte Space
0.212137375000000,LIN,Data 1: 2
0.212631375000000,LIN,Inter-Byte Space
0.212707000000000,LIN,Data 2: 96
0.213201000000000,LIN,Inter-Byte Space
0.213276625000000,LIN,Checksum: 26
0.214456625000000,LIN,Header Break
0.215128750000000,LIN,Inter-Byte Space
0.215234625000000,LIN,Header Sync
0.215728625000000,LIN,Inter-Byte Space
0.215805250000000,LIN,Protected ID: 16
0.219488125000000,LIN,Header Break
0.220160250000000,LIN,Inter-Byte Space
0.220266125000000,LIN,Header Sync
0.220760125000000,LIN,Inter-Byte Space
0.220992375000000,LIN,Protected ID: 16
0.224467625000000,LIN,Header Break
0.225139750000000,LIN,Inter-Byte Space
0.225245750000000,LIN,Header Sync
0.225739750000000,LIN,Inter-Byte Space
0.225971875000000,LIN,Protected ID: 16
0.229447625000000,LIN,Header Break
0.230119875000000,LIN,Inter-Byte Space
0.230225875000000,LIN,Header Sync
0.230719875000000,LIN,Inter-Byte Space
0.231004000000000,LIN,Protected ID: 16
0.234427500000000,LIN,Header Break
0.235099625000000,LIN,Inter-Byte Space
0.235205500000000,LIN,Header Sync
0.235699500000000,LIN,Inter-Byte Space
0.235983500000000,LIN,Protected ID: 16
0.239407625000000,LIN,Header Break
0.240080000000000,LIN,Inter-Byte Space
0.240186000000000,LIN,Header Sync
0.240680000000000,LIN,Inter-Byte Space
0.240964250000000,LIN,Protected ID: 16
0.244440625000000,LIN,Header Break
0.245112875000000,LIN,Inter-Byte Space
0.245218875000000,LIN,Header Sync
0.245712875000000,LIN,Inter-Byte Space
0.245945250000000,LIN,Protected ID: 1
0.249421375000000,LIN,Header Break
0.250093625000000,LIN,Inter-Byte Space
0.250199625000000,LIN,Header Sync
0.250693625000000,LIN,Inter-Byte Space
0.250926000000000,LIN,Protected ID: 18
0.251420000000000,LIN,Inter-Byte Space
0.251756125000000,LIN,Data 0: 58
0.252250125000000,LIN,Inter-Byte Space
0.252274875000000,LIN,Data 1: 2
0.252768875000000,LIN,Inter-Byte Space
0.252793500000000,LIN,Data 2: 252
0.253287500000000,LIN,Inter-Byte Space
0.253312250000000,LIN,Data 3: 52
0.299274000000000,LIN,Header Break
0.299946375000000,LIN,Inter-Byte Space
0.300052250000000,LIN,Header Sync
0.300546250000000,LIN,Inter-Byte Space
0.300830500000000,LIN,Protected ID: 17
0.301324500000000,LIN,Inter-Byte Space
0.301660750000000,LIN,Data 0: 0
0.302154750000000,LIN,Inter-Byte Space
0.302179625000000,LIN,Data 1: 0
0.302673625000000,LIN,Inter-Byte Space
0.302698375000000,LIN,Data 2: 0
0.303192375000000,LIN,Inter-Byte Space
0.303217250000000,LIN,Checksum: 238
0.304255000000000,LIN,Header Break
0.304927250000000,LIN,Inter-Byte Space
0.305033250000000,LIN,Header Sync
0.305527250000000,LIN,Inter-Byte Space
0.305811500000000,LIN,Protected ID: 8
0.306305500000000,LIN,Inter-Byte Space
0.306553625000000,LIN,Data 0: 49
0.307047625000000,LIN,Inter-Byte Space
0.307123125000000,LIN,Data 1: 2
0.307617125000000,LIN,Inter-Byte Space
0.307692625000000,LIN,Data 2: 96
0.308186625000000,LIN,Inter-Byte Space
0.308262125000000,LIN,Checksum: 100
0.309235500000000,LIN,Header Break
0.309907625000000,LIN,Inter-Byte Space
0.310013625000000,LIN,Header Sync
0.310507625000000,LIN,Inter-Byte Space
0.310532375000000,LIN,Protected ID: 9
0.311026375000000,LIN,Inter-Byte Space
0.311378750000000,LIN,Data 0: 58
0.311872750000000,LIN,Inter-Byte Space
0.311948500000000,LIN,Data 1: 2
0.312442500000000,LIN,Inter-Byte Space
0.312518125000000,LIN,Data 2: 96
0.313012125000000,LIN,Inter-Byte Space
0.313087750000000,LIN,Checksum: 26
0.314215625000000,LIN,Header Break
0.314887875000000,LIN,Inter-Byte Space
0.314993750000000,LIN,Header Sync
0.315487750000000,LIN,Inter-Byte Space
0.315564500000000,LIN,Protected ID: 16
0.319247750000000,LIN,Header Break
0.319919875000000,LIN,Inter-Byte Space
0.320025750000000,LIN,Header Sync
0.320519750000000,LIN,Inter-Byte Space
0.320752000000000,LIN,Protected ID: 16
0.324228000000000,LIN,Header Break
0.324900375000000,LIN,Inter-Byte Space
0.325006250000000,LIN,Header Sync
0.325500250000000,LIN,Inter-Byte Space
0.325784500000000,LIN,Protected ID: 16
0.329208750000000,LIN,Header Break
0.329881000000000,LIN,Inter-Byte Space
0.329987000000000,LIN,Header Sync
0.330481000000000,LIN,Inter-Byte Space
0.330765375000000,LIN,Protected ID: 16
0.334189750000000,LIN,Header Break
0.334862125000000,LIN,Inter-Byte Space
0.334968125000000,LIN,Header Sync
0.335462125000000,LIN,Inter-Byte Space
0.335746375000000,LIN,Protected ID: 16
0.339171000000000,LIN,Header Break
0.339843375000000,LIN,Inter-Byte Space
0.339949250000000,LIN,Header Sync
0.340443250000000,LIN,Inter-Byte Space
0.340468125000000,LIN,Protected ID: 16
0.344203500000000,LIN,Header Break
0.344875750000000,LIN,Inter-Byte Space
0.344981750000000,LIN,Header Sync
0.345475750000000,LIN,Inter-Byte Space
0.345708000000000,LIN,Protected ID: 1
0.349183625000000,LIN,Header Break
0.349855750000000,LIN,Inter-Byte Space
0.349961750000000,LIN,Header Sync
0.350455750000000,LIN,Inter-Byte Space
0.350688000000000,LIN,Protected ID: 18
0.351182000000000,LIN,Inter-Byte Space
0.351518000000000,LIN,Data 0: 58
0.352012000000000,LIN,Inter-Byte Space
0.352036750000000,LIN,Data 1: 2
0.352530750000000,LIN,Inter-Byte Space
0.352555375000000,LIN,Data 2: 252
0.353049375000000,LIN,Inter-Byte Space
0.353074250000000,LIN,Data 3: 52
0.399037125000000,LIN,Header Break
0.399709375000000,LIN,Inter-Byte Space
0.399815375000000,LIN,Header Sync
0.400309375000000,LIN,Inter-Byte Space
0.400593625000000,LIN,Protected ID: 17
0.401087625000000,LIN,Inter-Byte Space
0.401423750000000,LIN,Data 0: 0
0.401917750000000,LIN,Inter-Byte Space
0.401942625000000,LIN,Data 1: 0
0.402436625000000,LIN,Inter-Byte Space
0.402461375000000,LIN,Data 2: 0
0.402955375000000,LIN,Inter-Byte Space
0.402980250000000,LIN,Checksum: 238
0.404017750000000,LIN,Header Break
0.404690125000000,LIN,Inter-Byte Space
0.404796125000000,LIN,Header Sync
0.405290125000000,LIN,Inter-Byte Space
0.405315000000000,LIN,Protected ID: 8
0.405809000000000,LIN,Inter-Byte Space
0.406109375000000,LIN,Data 0: 49
0.406603375000000,LIN,Inter-Byte Space
0.406678875000000,LIN,Data 1: 2
0.407172875000000,LIN,Inter-Byte Space
0.407248375000000,LIN,Data 2: 96
0.407742375000000,LIN,Inter-Byte Space
0.407817875000000,LIN,Checksum: 100
0.408998500000000,LIN,Header Break
0.409670750000000,LIN,Inter-Byte Space
0.409776625000000,LIN,Header Sync
0.410270625000000,LIN,Inter-Byte Space
0.410347375000000,LIN,Protected ID: 9
0.410841375000000,LIN,Inter-Byte Space
0.411297250000000,LIN,Data 0: 58
0.411791250000000,LIN,Inter-Byte Space
0.411867000000000,LIN,Data 1: 2
0.412361000000000,LIN,Inter-Byte Space
0.412436625000000,LIN,Data 2: 96
0.412930625000000,LIN,Inter-Byte Space
0.413006375000000,LIN,Checksum: 26
0.413979250000000,LIN,Header Break
0.414651500000000,LIN,Inter-Byte Space
0.414757375000000,LIN,Header Sync
0.415251375000000,LIN,Inter-Byte Space
0.415328125000000,LIN,Protected ID: 16
0.419011750000000,LIN,Header Break
0.419684125000000,LIN,Inter-Byte Space
0.419790000000000,LIN,Header Sync
0.420284000000000,LIN,Inter-Byte Space
0.420516375000000,LIN,Protected ID: 16
0.423992625000000,LIN,Header Break
0.424664875000000,LIN,Inter-Byte Space
0.424770875000000,LIN,Header Sync
0.425264875000000,LIN,Inter-Byte Space
0.425549125000000,LIN,Protected ID: 16
0.428973750000000,LIN,Header Break
0.429646125000000,LIN,Inter-Byte Space
0.429752125000000,LIN,Header Sync
0.430246125000000,LIN,Inter-Byte Space
0.430530375000000,LIN,Protected ID: 16
0.433954500000000,LIN,Header Break
0.434626750000000,LIN,Inter-Byte Space
0.434732625000000,LIN,Header Sync
0.435226625000000,LIN,Inter-Byte Space
0.435510750000000,LIN,Protected ID: 16
0.438987500000000,LIN,Header Break
0.439659875000000,LIN,Inter-Byte Space
0.439765875000000,LIN,Header Sync
0.440259875000000,LIN,Inter-Byte Space
0.440492250000000,LIN,Protected ID: 16
0.443968625000000,LIN,Header Break
0.444640875000000,LIN,Inter-Byte Space
0.444746875000000,LIN,Header Sync
0.445240875000000,LIN,Inter-Byte Space
0.445473250000000,LIN,Protected ID: 1
0.448949875000000,LIN,Header Break
0.449622250000000,LIN,Inter-Byte Space
0.449728250000000,LIN,Header Sync
0.450222250000000,LIN,Inter-Byte Space
0.450454875000000,LIN,Protected ID: 18
0.450948875000000,LIN,Inter-Byte Space
0.451337000000000,LIN,Data 0: 58
0.451831000000000,LIN,Inter-Byte Space
0.451855875000000,LIN,Data 1: 2
0.452349875000000,LIN,Inter-Byte Space
0.452374625000000,LIN,Data 2: 252
0.452868625000000,LIN,Inter-Byte Space
0.452893375000000,LIN,Data 3: 52
0.498860500000000,LIN,Header Break
0.499532625000000,LIN,Inter-Byte Space
0.499638625000000,LIN,Header Sync
0.500132625000000,LIN,Inter-Byte Space
0.500364875000000,LIN,Protected ID: 17
0.500858875000000,LIN,Inter-Byte Space
0.501194875000000,LIN,Data 0: 0
0.501688875000000,LIN,Inter-Byte Space
0.501713750000000,LIN,Data 1: 0
0.502207750000000,LIN,Inter-Byte Space
0.502232625000000,LIN,Data 2: 0
0.502726625000000,LIN,Inter-Byte Space
0.502751500000000,LIN,Checksum: 238
0.503789250000000,LIN,Header Break
0.504461500000000,LIN,Inter-Byte Space
0.504567500000000,LIN,Header Sync
0.505061500000000,LIN,Inter-Byte Space
0.505086250000000,LIN,Protected ID: 8
0.505580250000000,LIN,Inter-Byte Space
0.505932375000000,LIN,Data 0: 49
0.506426375000000,LIN,Inter-Byte Space
0.506501875000000,LIN,Data 1: 2
0.506995875000000,LIN,Inter-Byte Space
0.507071250000000,LIN,Data 2: 96
0.507565250000000,LIN,Inter-Byte Space
0.507640750000000,LIN,Checksum: 100
0.508769625000000,LIN,Header Break
0.509441875000000,LIN,Inter-Byte Space
0.509547750000000,LIN,Header Sync
0.510041750000000,LIN,Inter-Byte Space
0.510118250000000,LIN,Protected ID: 9
0.510612250000000,LIN,Inter-Byte Space
0.510861250000000,LIN,Data 0: 58
0.511355250000000,LIN,Inter-Byte Space
0.511431125000000,LIN,Data 1: 2
0.511925125000000,LIN,Inter-Byte Space
0.512000875000000,LIN,Data 2: 96
0.512494875000000,LIN,Inter-Byte Space
0.512570750000000,LIN,Checksum: 26
0.513801000000000,LIN,Header Break
0.514473250000000,LIN,Inter-Byte Space
0.514579250000000,LIN,Header Sync
0.515073250000000,LIN,Inter-Byte Space
0.515305625000000,LIN,Protected ID: 16
0.518782000000000,LIN,Header Break
0.519454375000000,LIN,Inter-Byte Space
0.519560250000000,LIN,Header Sync
0.520054250000000,LIN,Inter-Byte Space
0.520338625000000,LIN,Protected ID: 16
0.523762750000000,LIN,Header Break
0.524435000000000,LIN,Inter-Byte Space
0.524541000000000,LIN,Header Sync
0.525035000000000,LIN,Inter-Byte Space
0.525319250000000,LIN,Protected ID: 16
0.528743375000000,LIN,Header Break
0.529415625000000,LIN,Inter-Byte Space
0.529521625000000,LIN,Header Sync
0.530015625000000,LIN,Inter-Byte Space
0.530300000000000,LIN,Protected ID: 16
0.533724625000000,LIN,Header Break
0.534397000000000,LIN,Inter-Byte Space
0.534502875000000,LIN,Header Sync
0.534996875000000,LIN,Inter-Byte Space
0.535021625000000,LIN,Protected ID: 16
0.538757250000000,LIN,Header Break
0.539429375000000,LIN,Inter-Byte Space
0.539535375000000,LIN,Header Sync
0.540029375000000,LIN,Inter-Byte Space
0.540261625000000,LIN,Protected ID: 16
0.543737750000000,LIN,Header Break
0.544410125000000,LIN,Inter-Byte Space
0.544516125000000,LIN,Header Sync
0.545010125000000,LIN,Inter-Byte Space
0.545242500000000,LIN,Protected ID: 1
0.548718500000000,LIN,Header Break
0.549390625000000,LIN,Inter-Byte Space
0.549496625000000,LIN,Header Sync
0.549990625000000,LIN,Inter-Byte Space
0.550223000000000,LIN,Protected ID: 18
0.550717000000000,LIN,Inter-Byte Space
0.551105250000000,LIN,Data 0: 58
0.551599250000000,LIN,Inter-Byte Space
0.551624125000000,LIN,Data 1: 2
0.552118125000000,LIN,Inter-Byte Space
0.552142875000000,LIN,Data 2: 252
0.552636875000000,LIN,Inter-Byte Space
0.552661750000000,LIN,Data 3: 52
0.598630125000000,LIN,Header Break
0.599302250000000,LIN,Inter-Byte Space
0.599408250000000,LIN,Header Sync
0.599902250000000,LIN,Inter-Byte Space
0.600134500000000,LIN,Protected ID: 17
0.600628500000000,LIN,Inter-Byte Space
0.600964500000000,LIN,Data 0: 0
0.601458500000000,LIN,Inter-Byte Space
0.601483250000000,LIN,Data 1: 0
0.601977250000000,LIN,Inter-Byte Space
0.602002000000000,LIN,Data 2: 0
0.602496000000000,LIN,Inter-Byte Space
0.602520750000000,LIN,Checksum: 238
0.603558375000000,LIN,Header Break
0.604230625000000,LIN,Inter-Byte Space
0.604336625000000,LIN,Header Sync
0.604830625000000,LIN,Inter-Byte Space
0.604907125000000,LIN,Protected ID: 8
0.605401125000000,LIN,Inter-Byte Space
0.605649250000000,LIN,Data 0: 49
