Time [s], Analyzer Name, Decoded Protocol Result
0.000000000000000,LIN,Header Break
0.000702000000000,LIN,Inter-Byte Space
0.000778000000000,LIN,Header Sync
0.001272000000000,LIN,Inter-Byte Space
0.001504125000000,LIN,Protected ID: 17
0.001998125000000,LIN,Inter-Byte Space
0.002334125000000,LIN,Data 0: 0
0.002828125000000,LIN,Inter-Byte Space
0.002852875000000,LIN,Data 1: 0
0.003346875000000,LIN,Inter-Byte Space
0.003371500000000,LIN,Data 2: 0
0.003865500000000,LIN,Inter-Byte Space
0.003890250000000,LIN,Checksum: 238
0.004979625000000,LIN,Header Break
0.005651750000000,LIN,Inter-Byte Space
0.005757625000000,LIN,Header Sync
0.006251625000000,LIN,Inter-Byte Space
0.006535625000000,LIN,Protected ID: 8
0.007029625000000,LIN,Inter-Byte Space
0.007484875000000,LIN,Data 0: 100
0.007978875000000,LIN,Inter-Byte Space
0.008054375000000,LIN,Data 1: 23
0.008548375000000,LIN,Inter-Byte Space
0.008623750000000,LIN,Data 2: 96
0.009117750000000,LIN,Inter-Byte Space
0.009193125000000,LIN,Checksum: 28
0.009959125000000,LIN,Header Break
0.010631250000000,LIN,Inter-Byte Space
0.010737125000000,LIN,Header Sync
0.011231125000000,LIN,Inter-Byte Space
0.011515125000000,LIN,Protected ID: 9
0.012009125000000,LIN,Inter-Byte Space
0.012568625000000,LIN,Data 0: 94
0.013062625000000,LIN,Inter-Byte Space
0.013138500000000,LIN,Data 1: 23
0.013632500000000,LIN,Inter-Byte Space
0.013708250000000,LIN,Data 2: 96
0.014202250000000,LIN,Inter-Byte Space
0.014278125000000,LIN,Checksum: 224
0.014938375000000,LIN,Header Break
0.015610375000000,LIN,Inter-Byte Space
0.015716375000000,LIN,Header Sync
0.016210375000000,LIN,Inter-Byte Space
0.016494375000000,LIN,Protected ID: 16
0.019917750000000,LIN,Header Break
0.020589750000000,LIN,Inter-Byte Space
0.020695625000000,LIN,Header Sync
0.021189625000000,LIN,Inter-Byte Space
0.021214250000000,LIN,Protected ID: 16
0.024948625000000,LIN,Header Break
0.025620750000000,LIN,Inter-Byte Space
0.025726625000000,LIN,Header Sync
0.026220625000000,LIN,Inter-Byte Space
0.026452875000000,LIN,Protected ID: 16
0.029928250000000,LIN,Header Break
0.030600250000000,LIN,Inter-Byte Space
0.030706125000000,LIN,Header Sync
0.031200125000000,LIN,Inter-Byte Space
0.031432250000000,LIN,Protected ID: 16
0.034907750000000,LIN,Header Break
0.035579750000000,LIN,Inter-Byte Space
0.035685625000000,LIN,Header Sync
0.036179625000000,LIN,Inter-Byte Space
0.036411750000000,LIN,Protected ID: 16
0.039886250000000,LIN,Header Break
0.040558250000000,LIN,Inter-Byte Space
0.040664125000000,LIN,Header Sync
0.041158125000000,LIN,Inter-Byte Space
0.041442000000000,LIN,Protected ID: 16
0.044865375000000,LIN,Header Break
0.045537500000000,LIN,Inter-Byte Space
0.045643500000000,LIN,Header Sync
0.046137500000000,LIN,Inter-Byte Space
0.046421500000000,LIN,Protected ID: 1
0.049844750000000,LIN,Header Break
0.050516750000000,LIN,Inter-Byte Space
0.050622625000000,LIN,Header Sync
0.051116625000000,LIN,Inter-Byte Space
0.051400750000000,LIN,Protected ID: 18
0.051894750000000,LIN,Inter-Byte Space
0.052230625000000,LIN,Data 0: 100
0.052724625000000,LIN,Inter-Byte Space
0.052749375000000,LIN,Data 1: 23
0.053243375000000,LIN,Inter-Byte Space
0.053268000000000,LIN,Data 2: 252
0.053762000000000,LIN,Inter-Byte Space
0.053786750000000,LIN,Data 3: 244
0.099745000000000,LIN,Header Break
0.100417250000000,LIN,Inter-Byte Space
0.100523250000000,LIN,Header Sync
0.101017250000000,LIN,Inter-Byte Space
0.101249500000000,LIN,Protected ID: 17
0.101743500000000,LIN,Inter-Byte Space
0.102131375000000,LIN,Data 0: 0
0.102625375000000,LIN,Inter-Byte Space
0.102650250000000,LIN,Data 1: 0
0.103144250000000,LIN,Inter-Byte Space
0.103169000000000,LIN,Data 2: 0
0.103663000000000,LIN,Inter-Byte Space
0.103687750000000,LIN,Checksum: 238
0.104725375000000,LIN,Header Break
0.105397625000000,LIN,Inter-Byte Space
0.105503500000000,LIN,Header Sync
0.105997500000000,LIN,Inter-Byte Space
0.106281625000000,LIN,Protected ID: 8
0.106775625000000,LIN,Inter-Byte Space
0.107179125000000,LIN,Data 0: 100
0.107673125000000,LIN,Inter-Byte Space
0.107748625000000,LIN,Data 1: 23
0.108242625000000,LIN,Inter-Byte Space
0.108318125000000,LIN,Data 2: 96
0.108812125000000,LIN,Inter-Byte Space
0.108887500000000,LIN,Checksum: 28
0.109705750000000,LIN,Header Break
0.110378000000000,LIN,Inter-Byte Space
0.110484000000000,LIN,Header Sync
0.110978000000000,LIN,Inter-Byte Space
0.111262125000000,LIN,Protected ID: 9
0.111756125000000,LIN,Inter-Byte Space
0.112211875000000,LIN,Data 0: 94
0.112705875000000,LIN,Inter-Byte Space
0.112781750000000,LIN,Data 1: 23
0.113275750000000,LIN,Inter-Byte Space
0.113351500000000,LIN,Data 2: 96
0.113845500000000,LIN,Inter-Byte Space
0.113921375000000,LIN,Checksum: 224
0.114686250000000,LIN,Header Break
0.115358500000000,LIN,Inter-Byte Space
0.115464500000000,LIN,Header Sync
0.115958500000000,LIN,Inter-Byte Space
0.116242625000000,LIN,Protected ID: 16
0.119666125000000,LIN,Header Break
0.120338250000000,LIN,Inter-Byte Space
0.120444250000000,LIN,Header Sync
0.120938250000000,LIN,Inter-Byte Space
0.120962875000000,LIN,Protected ID: 16
0.124698125000000,LIN,Header Break
0.125370375000000,LIN,Inter-Byte Space
0.125476250000000,LIN,Header Sync
0.125970250000000,LIN,Inter-Byte Space
0.126202500000000,LIN,Protected ID: 16
0.129677875000000,LIN,Header Break
0.130349875000000,LIN,Inter-Byte Space
0.130455750000000,LIN,Header Sync
0.130949750000000,LIN,Inter-Byte Space
0.131181875000000,LIN,Protected ID: 16
0.134657625000000,LIN,Header Break
0.135330000000000,LIN,Inter-Byte Space
0.135435875000000,LIN,Header Sync
0.135929875000000,LIN,Inter-Byte Space
0.136214000000000,LIN,Protected ID: 16
0.139638125000000,LIN,Header Break
0.140310375000000,LIN,Inter-Byte Space
0.140416375000000,LIN,Header Sync
0.140910375000000,LIN,Inter-Byte Space
0.141194625000000,LIN,Protected ID: 16
0.144618500000000,LIN,Header Break
0.145290750000000,LIN,Inter-Byte Space
0.145396625000000,LIN,Header Sync
0.145890625000000,LIN,Inter-Byte Space
0.146174875000000,LIN,Protected ID: 1
0.149598750000000,LIN,Header Break
0.150271000000000,LIN,Inter-Byte Space
0.150377000000000,LIN,Header Sync
0.150871000000000,LIN,Inter-Byte Space
0.150895750000000,LIN,Protected ID: 18
0.151389750000000,LIN,Inter-Byte Space
0.151725875000000,LIN,Data 0: 100
0.152219875000000,LIN,Inter-Byte Space
0.152244625000000,LIN,Data 1: 23
0.152738625000000,LIN,Inter-Byte Space
0.152763375000000,LIN,Data 2: 252
0.153257375000000,LIN,Inter-Byte Space
0.153282125000000,LIN,Data 3: 244
0.199506875000000,LIN,Header Break
0.200179125000000,LIN,Inter-Byte Space
0.200285000000000,LIN,Header Sync
0.200779000000000,LIN,Inter-Byte Space
0.201063125000000,LIN,Protected ID: 17
0.201557125000000,LIN,Inter-Byte Space
0.201893125000000,LIN,Data 0: 0
0.202387125000000,LIN,Inter-Byte Space
0.202411875000000,LIN,Data 1: 0
0.202905875000000,LIN,Inter-Byte Space
0.202930625000000,LIN,Data 2: 0
0.203424625000000,LIN,Inter-Byte Space
0.203449500000000,LIN,Checksum: 238
0.204487000000000,LIN,Header Break
0.205159250000000,LIN,Inter-Byte Space
0.205265125000000,LIN,Header Sync
0.205759125000000,LIN,Inter-Byte Space
0.206043250000000,LIN,Protected ID: 8
0.206537250000000,LIN,Inter-Byte Space
0.206733625000000,LIN,Data 0: 100
0.207227625000000,LIN,Inter-Byte Space
0.207303125000000,LIN,Data 1: 23
0.207797125000000,LIN,Inter-Byte Space
0.207872500000000,LIN,Data 2: 96
0.208366500000000,LIN,Inter-Byte Space
0.208442000000000,LIN,Checksum: 28
0.209467500000000,LIN,Header Break
0.210139750000000,LIN,Inter-Byte Space
0.210245750000000,LIN,Header Sync
0.210739750000000,LIN,Inter-Byte Space
0.211024000000000,LIN,Protected ID: 9
0.211518000000000,LIN,Inter-Byte Space
0.211870375000000,LIN,Data 0: 94
0.212364375000000,LIN,Inter-Byte Space
0.212440250000000,LIN,Data 1: 23
0.212934250000000,LIN,Inter-Byte Space
0.213010125000000,LIN,Data 2: 96
0.213504125000000,LIN,Inter-Byte Space
0.213580000000000,LIN,Checksum: 224
0.214448125000000,LIN,Header Break
0.215120375000000,LIN,Inter-Byte Space
0.215226375000000,LIN,Header Sync
0.215720375000000,LIN,Inter-Byte Space
0.215745125000000,LIN,Protected ID: 16
0.219428500000000,LIN,Header Break
0.220100625000000,LIN,Inter-Byte Space
0.220206625000000,LIN,Header Sync
0.220700625000000,LIN,Inter-Byte Space
0.220777250000000,LIN,Protected ID: 16
0.224460750000000,LIN,Header Break
0.225132875000000,LIN,Inter-Byte Space
0.225238875000000,LIN,Header Sync
0.225732875000000,LIN,Inter-Byte Space
0.225965000000000,LIN,Protected ID: 16
0.229440250000000,LIN,Header Break
0.230112250000000,LIN,Inter-Byte Space
0.230218125000000,LIN,Header Sync
0.230712125000000,LIN,Inter-Byte Space
0.230944250000000,LIN,Protected ID: 16
0.234419250000000,LIN,Header Break
0.235091375000000,LIN,Inter-Byte Space
0.235197250000000,LIN,Header Sync
0.235691250000000,LIN,Inter-Byte Space
0.235975375000000,LIN,Protected ID: 16
0.239399250000000,LIN,Header Break
0.240071500000000,LIN,Inter-Byte Space
0.240177500000000,LIN,Header Sync
0.240671500000000,LIN,Inter-Byte Space
0.240955625000000,LIN,Protected ID: 16
0.244379375000000,LIN,Header Break
0.245051500000000,LIN,Inter-Byte Space
0.245157375000000,LIN,Header Sync
0.245651375000000,LIN,Inter-Byte Space
0.245935500000000,LIN,Protected ID: 1
0.249411250000000,LIN,Header Break
0.250083500000000,LIN,Inter-Byte Space
0.250189500000000,LIN,Header Sync
0.250683500000000,LIN,Inter-Byte Space
0.250915750000000,LIN,Protected ID: 18
0.251409750000000,LIN,Inter-Byte Space
0.251745875000000,LIN,Data 0: 100
0.252239875000000,LIN,Inter-Byte Space
0.252264625000000,LIN,Data 1: 23
0.252758625000000,LIN,Inter-Byte Space
0.252783375000000,LIN,Data 2: 252
0.253277375000000,LIN,Inter-Byte Space
0.253302125000000,LIN,Data 3: 244
0.299265625000000,LIN,Header Break
0.299937875000000,LIN,Inter-Byte Space
0.300043750000000,LIN,Header Sync
0.300537750000000,LIN,Inter-Byte Space
0.300822000000000,LIN,Protected ID: 17
0.301316000000000,LIN,Inter-Byte Space
0.301652000000000,LIN,Data 0: 0
0.302146000000000,LIN,Inter-Byte Space
0.302170875000000,LIN,Data 1: 0
0.302664875000000,LIN,Inter-Byte Space
0.302689625000000,LIN,Data 2: 0
0.303183625000000,LIN,Inter-Byte Space
0.303208500000000,LIN,Checksum: 238
0.304246125000000,LIN,Header Break
0.304918375000000,LIN,Inter-Byte Space
0.305024375000000,LIN,Header Sync
0.305518375000000,LIN,Inter-Byte Space
0.305802625000000,LIN,Protected ID: 8
0.306296625000000,LIN,Inter-Byte Space
0.306648375000000,LIN,Data 0: 100
0.307142375000000,LIN,Inter-Byte Space
0.307217875000000,LIN,Data 1: 23
0.307711875000000,LIN,Inter-Byte Space
0.307787375000000,LIN,Data 2: 96
0.308281375000000,LIN,Inter-Byte Space
0.308356750000000,LIN,Checksum: 28
0.309227000000000,LIN,Header Break
0.309899125000000,LIN,Inter-Byte Space
0.310005125000000,LIN,Header Sync
0.310499125000000,LIN,Inter-Byte Space
0.310783250000000,LIN,Protected ID: 9
0.311277250000000,LIN,Inter-Byte Space
0.311474500000000,LIN,Data 0: 94
0.311968500000000,LIN,Inter-Byte Space
0.312044375000000,LIN,Data 1: 23
0.312538375000000,LIN,Inter-Byte Space
0.312614125000000,LIN,Data 2: 96
0.313108125000000,LIN,Inter-Byte Space
0.313184000000000,LIN,Checksum: 224
0.314207250000000,LIN,Header Break
0.314879500000000,LIN,Inter-Byte Space
0.314985375000000,LIN,Header Sync
0.315479375000000,LIN,Inter-Byte Space
0.315504125000000,LIN,Protected ID: 16
0.319239375000000,LIN,Header Break
0.319911625000000,LIN,Inter-Byte Space
0.320017625000000,LIN,Header Sync
0.320511625000000,LIN,Inter-Byte Space
0.320744000000000,LIN,Protected ID: 16
0.324220000000000,LIN,Header Break
0.324892250000000,LIN,Inter-Byte Space
0.324998250000000,LIN,Header Sync
0.325492250000000,LIN,Inter-Byte Space
0.325724375000000,LIN,Protected ID: 16
0.329200125000000,LIN,Header Break
0.329872375000000,LIN,Inter-Byte Space
0.329978375000000,LIN,Header Sync
0.330472375000000,LIN,Inter-Byte Space
0.330756625000000,LIN,Protected ID: 16
0.334180875000000,LIN,Header Break
0.334853125000000,LIN,Inter-Byte Space
0.334959000000000,LIN,Header Sync
0.335453000000000,LIN,Inter-Byte Space
0.335737250000000,LIN,Protected ID: 16
0.339161125000000,LIN,Header Break
0.339833250000000,LIN,Inter-Byte Space
0.339939125000000,LIN,Header Sync
0.340433125000000,LIN,Inter-Byte Space
0.340717250000000,LIN,Protected ID: 16
0.344140625000000,LIN,Header Break
0.344812750000000,LIN,Inter-Byte Space
0.344918625000000,LIN,Header Sync
0.345412625000000,LIN,Inter-Byte Space
0.345437375000000,LIN,Protected ID: 1
0.349171750000000,LIN,Header Break
0.349843875000000,LIN,Inter-Byte Space
0.349949875000000,LIN,Header Sync
0.350443875000000,LIN,Inter-Byte Space
0.350676000000000,LIN,Protected ID: 18
0.351170000000000,LIN,Inter-Byte Space
0.351505875000000,LIN,Data 0: 100
0.351999875000000,LIN,Inter-Byte Space
0.352024625000000,LIN,Data 1: 23
0.352518625000000,LIN,Inter-Byte Space
0.352543125000000,LIN,Data 2: 252
0.353037125000000,LIN,Inter-Byte Space
0.353061750000000,LIN,Data 3: 244
0.399024625000000,LIN,Header Break
0.399696875000000,LIN,Inter-Byte Space
0.399802875000000,LIN,Header Sync
0.400296875000000,LIN,Inter-Byte Space
0.400581000000000,LIN,Protected ID: 17
0.401075000000000,LIN,Inter-Byte Space
0.401411000000000,LIN,Data 0: 0
0.401905000000000,LIN,Inter-Byte Space
0.401929750000000,LIN,Data 1: 0
0.402423750000000,LIN,Inter-Byte Space
0.402448625000000,LIN,Data 2: 0
0.402942625000000,LIN,Inter-Byte Space
0.402967375000000,LIN,Checksum: 238
0.404004875000000,LIN,Header Break
0.404677125000000,LIN,Inter-Byte Space
0.404783000000000,LIN,Header Sync
0.405277000000000,LIN,Inter-Byte Space
0.405561000000000,LIN,Protected ID: 8
0.406055000000000,LIN,Inter-Byte Space
0.406251750000000,LIN,Data 0: 100
0.406745750000000,LIN,Inter-Byte Space
0.406821375000000,LIN,Data 1: 23
0.407315375000000,LIN,Inter-Byte Space
0.407391000000000,LIN,Data 2: 96
0.407885000000000,LIN,Inter-Byte Space
0.407960500000000,LIN,Checksum: 28
0.408984250000000,LIN,Header Break
0.409656125000000,LIN,Inter-Byte Space
0.409762125000000,LIN,Header Sync
0.410256125000000,LIN,Inter-Byte Space
0.410280750000000,LIN,Protected ID: 9
0.410774750000000,LIN,Inter-Byte Space
0.411075750000000,LIN,Data 0: 94
0.411569750000000,LIN,Inter-Byte Space
0.411645625000000,LIN,Data 1: 23
0.412139625000000,LIN,Inter-Byte Space
0.412215375000000,LIN,Data 2: 96
0.412709375000000,LIN,Inter-Byte Space
0.412785125000000,LIN,Checksum: 224
0.413963625000000,LIN,Header Break
0.414635750000000,LIN,Inter-Byte Space
0.414741750000000,LIN,Header Sync
0.415235750000000,LIN,Inter-Byte Space
0.415312375000000,LIN,Protected ID: 16
0.418995250000000,LIN,Header Break
0.419667375000000,LIN,Inter-Byte Space
0.419773375000000,LIN,Header Sync
0.420267375000000,LIN,Inter-Byte Space
0.420499625000000,LIN,Protected ID: 16
0.423974875000000,LIN,Header Break
0.424647000000000,LIN,Inter-Byte Space
0.424753000000000,LIN,Header Sync
0.425247000000000,LIN,Inter-Byte Space
0.425479250000000,LIN,Protected ID: 16
0.428954875000000,LIN,Header Break
0.429627125000000,LIN,Inter-Byte Space
0.429733125000000,LIN,Header Sync
0.430227125000000,LIN,Inter-Byte Space
0.430511250000000,LIN,Protected ID: 16
0.433935000000000,LIN,Header Break
0.434607000000000,LIN,Inter-Byte Space
0.434713000000000,LIN,Header Sync
0.435207000000000,LIN,Inter-Byte Space
0.435491000000000,LIN,Protected ID: 16
0.438914500000000,LIN,Header Break
0.439586625000000,LIN,Inter-Byte Space
0.439692500000000,LIN,Header Sync
0.440186500000000,LIN,Inter-Byte Space
0.440470625000000,LIN,Protected ID: 16
0.443946500000000,LIN,Header Break
0.444618875000000,LIN,Inter-Byte Space
0.444724750000000,LIN,Header Sync
0.445218750000000,LIN,Inter-Byte Space
0.445451000000000,LIN,Protected ID: 1
0.448926500000000,LIN,Header Break
0.449598750000000,LIN,Inter-Byte Space
0.449704625000000,LIN,Header Sync
0.450198625000000,LIN,Inter-Byte Space
0.450430875000000,LIN,Protected ID: 18
0.450924875000000,LIN,Inter-Byte Space
0.451261000000000,LIN,Data 0: 100
0.451755000000000,LIN,Inter-Byte Space
0.451779875000000,LIN,Data 1: 23
0.452273875000000,LIN,Inter-Byte Space
0.452298625000000,LIN,Data 2: 252
0.452792625000000,LIN,Inter-Byte Space
0.452817500000000,LIN,Data 3: 244
0.498784625000000,LIN,Header Break
0.499457000000000,LIN,Inter-Byte Space
0.499562875000000,LIN,Header Sync
0.500056875000000,LIN,Inter-Byte Space
0.500341250000000,LIN,Protected ID: 17
0.500835250000000,LIN,Inter-Byte Space
0.501171500000000,LIN,Data 0: 0
0.501665500000000,LIN,Inter-Byte Space
0.501690250000000,LIN,Data 1: 0
0.502184250000000,LIN,Inter-Byte Space
0.502209000000000,LIN,Data 2: 0
0.502703000000000,LIN,Inter-Byte Space
0.502727875000000,LIN,Checksum: 238
0.503765375000000,LIN,Header Break
0.504437625000000,LIN,Inter-Byte Space
0.504543500000000,LIN,Header Sync
0.505037500000000,LIN,Inter-Byte Space
0.505321750000000,LIN,Protected ID: 8
0.505815750000000,LIN,Inter-Byte Space
0.506115625000000,LIN,Data 0: 100
0.506609625000000,LIN,Inter-Byte Space
0.506685125000000,LIN,Data 1: 23
0.507179125000000,LIN,Inter-Byte Space
0.507254625000000,LIN,Data 2: 96
0.507748625000000,LIN,Inter-Byte Space
0.507824000000000,LIN,Checksum: 28
0.508745625000000,LIN,Header Break
0.509417750000000,LIN,Inter-Byte Space
0.509523625000000,LIN,Header Sync
0.510017625000000,LIN,Inter-Byte Space
0.510042375000000,LIN,Protected ID: 9
0.510536375000000,LIN,Inter-Byte Space
0.510733500000000,LIN,Data 0: 94
0.511227500000000,LIN,Inter-Byte Space
0.511303500000000,LIN,Data 1: 23
0.511797500000000,LIN,Inter-Byte Space
0.511873375000000,LIN,Data 2: 96
0.512367375000000,LIN,Inter-Byte Space
0.512443250000000,LIN,Checksum: 224
0.513725750000000,LIN,Header Break
0.514398000000000,LIN,Inter-Byte Space
0.514504000000000,LIN,Header Sync
0.514998000000000,LIN,Inter-Byte Space
0.515074625000000,LIN,Protected ID: 16
0.518757875000000,LIN,Header Break
0.519430000000000,LIN,Inter-Byte Space
0.519535875000000,LIN,Header Sync
0.520029875000000,LIN,Inter-Byte Space
0.520262125000000,LIN,Protected ID: 16
0.523737625000000,LIN,Header Break
0.524409750000000,LIN,Inter-Byte Space
0.524515625000000,LIN,Header Sync
0.525009625000000,LIN,Inter-Byte Space
0.525293875000000,LIN,Protected ID: 16
0.528717125000000,LIN,Header Break
0.529389250000000,LIN,Inter-Byte Space
0.529495125000000,LIN,Header Sync
0.529989125000000,LIN,Inter-Byte Space
0.530273250000000,LIN,Protected ID: 16
0.533697500000000,LIN,Header Break
0.534369875000000,LIN,Inter-Byte Space
0.534475750000000,LIN,Header Sync
0.534969750000000,LIN,Inter-Byte Space
0.535254000000000,LIN,Protected ID: 16
0.538678250000000,LIN,Header Break
0.539350500000000,LIN,Inter-Byte Space
0.539456375000000,LIN,Header Sync
0.539950375000000,LIN,Inter-Byte Space
0.539975250000000,LIN,Protected ID: 16
0.543710500000000,LIN,Header Break
0.544382625000000,LIN,Inter-Byte Space
0.544488500000000,LIN,Header Sync
0.544982500000000,LIN,Inter-Byte Space
0.545214875000000,LIN,Protected ID: 1
0.548691250000000,LIN,Header Break
0.549363625000000,LIN,Inter-Byte Space
0.549469625000000,LIN,Header Sync
0.549963625000000,LIN,Inter-Byte Space
0.550196000000000,LIN,Protected ID: 18
0.550690000000000,LIN,Inter-Byte Space
0.551026125000000,LIN,Data 0: 100
0.551520125000000,LIN,Inter-Byte Space
0.551545000000000,LIN,Data 1: 23
0.552039000000000,LIN,Inter-Byte Space
0.552063875000000,LIN,Data 2: 252
0.552557875000000,LIN,Inter-Byte Space
0.552582750000000,LIN,Data 3: 244
0.598548000000000,LIN,Header Break
0.599220250000000,LIN,Inter-Byte Space
0.599326250000000,LIN,Header Sync
0.599820250000000,LIN,Inter-Byte Space
0.600104375000000,LIN,Protected ID: 17
0.600598375000000,LIN,Inter-Byte Space
0.600934250000000,LIN,Data 0: 0
0.601428250000000,LIN,Inter-Byte Space
0.601453000000000,LIN,Data 1: 0
0.601947000000000,LIN,Inter-Byte Space
0.601971625000000,LIN,Data 2: 0
0.602465625000000,LIN,Inter-Byte Space
0.602490375000000,LIN,Checksum: 238
0.603527875000000,LIN,Header Break
0.604200000000000,LIN,Inter-Byte Space
0.604306000000000,LIN,Header Sync
0.604800000000000,LIN,Inter-Byte Space
0.604824750000000,LIN,Protected ID: 8
0.605318750000000,LIN,Inter-Byte Space
